# vsim -vopt work.top -voptargs="+acc=npr" -assertdebug -l simulation.log -coverage -c -do "coverage save -onexit -assert -directive -cvg -codeAll coverage.ucdb; run -all; exit" 
# Start time: 21:09:19 on Dec 03,2025
# ** Note: (vsim-3812) Design is being optimized...
# //  Questa Sim
# //  Version 10.6c linux Jul 25 2017
# //
# //  Copyright 1991-2017 Mentor Graphics Corporation
# //  All Rights Reserved.
# //
# //  QuestaSim and its associated documentation contain trade
# //  secrets and commercial or financial information that are the property of
# //  Mentor Graphics Corporation and are privileged, confidential,
# //  and exempt from disclosure under the Freedom of Information Act,
# //  5 U.S.C. Section 552. Furthermore, this information
# //  is prohibited from disclosure under the Trade Secrets Act,
# //  18 U.S.C. Section 1905.
# //
# Loading sv_std.std
# Loading work.apb_slv_intf(fast)
# Loading mtiUvm.uvm_pkg
# Loading work.apb_pkg(fast)
# Loading work.top(fast)
# Loading work.apb_slv_intf(fast)
# Loading work.apb_slave(fast)
# Loading mtiUvm.questa_uvm_pkg(fast)
# Loading /tools/mentor/questasim_10.6c/questasim/uvm-1.1d/linux/uvm_dpi.so
# coverage save -onexit -assert -directive -cvg -codeAll coverage.ucdb
#  run -all
# ----------------------------------------------------------------
# UVM-1.1d
# (C) 2007-2013 Mentor Graphics Corporation
# (C) 2007-2013 Cadence Design Systems, Inc.
# (C) 2006-2013 Synopsys, Inc.
# (C) 2011-2013 Cypress Semiconductor Corp.
# ----------------------------------------------------------------
# 
#   ***********       IMPORTANT RELEASE NOTES         ************
# 
#   You are using a version of the UVM library that has been compiled
#   with `UVM_NO_DEPRECATED undefined.
#   See http://www.eda.org/svdb/view.php?id=3313 for more details.
# 
#   You are using a version of the UVM library that has been compiled
#   with `UVM_OBJECT_MUST_HAVE_CONSTRUCTOR undefined.
#   See http://www.eda.org/svdb/view.php?id=3770 for more details.
# 
#       (Specify +UVM_NO_RELNOTES to turn off this notice)
# 
# UVM_INFO verilog_src/questa_uvm_pkg-1.2/src/questa_uvm_pkg.sv(215) @ 0: reporter [Questa UVM] QUESTA_UVM-1.2.3
# UVM_INFO verilog_src/questa_uvm_pkg-1.2/src/questa_uvm_pkg.sv(217) @ 0: reporter [Questa UVM]  questa_uvm::init(+struct)
# UVM_INFO @ 0: reporter [RNTST] Running test apb_regression...
# UVM_INFO apb_agent.sv(20) @ 0: uvm_test_top.env.active_agent [apb_slv_agent] Agent uvm_test_top.env.active_agent is  ACTIVE
# UVM_INFO apb_agent.sv(20) @ 0: uvm_test_top.env.passive_agent [apb_slv_agent] Agent uvm_test_top.env.passive_agent is  ACTIVE
# active_monitor ...sequence...
# UVM_INFO apb_active_monitor.sv(35) @ 15: uvm_test_top.env.active_agent.active_monitor [uvm_test_top.env.active_agent.active_monitor] apb_seeq_item -> psel: 1 | penable : 1 | pwrite : 1 | paddr : 513527324 | pwdata : 3147155187 | pstrb : 1111 | prdata : 0 | pready : 0 | pslverr : 0
# passive_monitor ...sequence...
# UVM_INFO apb_passive_monitor.sv(31) @ 25: uvm_test_top.env.passive_agent.passive_monitor [uvm_test_top.env.passive_agent.passive_monitor] apb_seeq_item -> psel: 0 | penable : 0 | pwrite : 0 | paddr : 0 | pwdata : 0 | pstrb : 0000 | prdata : 0 | pready : 1 | pslverr : 1
# UVM_INFO apb_scoreboard.sv(47) @ 25: uvm_test_top.env.scoreboard [apb_slv_scoreboard] mem : 0 0 0 0 0 0 0 0 0 0 0 0 0 0 0 0 0 0 0 0 0 0 0 0 0 0 0 0 0 0 0 0 0 0 0 0 0 0 0 0 0 0 0 0 0 0 0 0 0 0 0 0 0 0 0 0 0 0 0 0 0 0 0 0 0 0 0 0 0 0 0 0 0 0 0 0 0 0 0 0 0 0 0 0 0 0 0 0 0 0 0 0 0 0 0 0 0 0 0 0 0 0 0 0 0 0 0 0 0 0 0 0 0 0 0 0 0 0 0 0 0 0 0 0 0 0 0 0 0 0 0 0 0 0 0 0 0 0 0 0 0 0 0 0 0 0 0 0 0 0 0 0 0 0 0 0 0 0 0 0 0 0 0 0 0 0 0 0 0 0 0 0 0 0 0 0 0 0 0 0 0 0 0 0 0 0 0 0 0 0 0 0 0 0 0 0 0 0 0 0 0 0 0 0 0 0 0 0 0 0 0 0 0 0 0 0 0 0 0 0 0 0 0 0 0 0 0 0 0 0 0 0 0 0 0 0 0 0 0 0 0 0 0 0 0 0 0 0 0 0 0 0 0 0 0 0
# exp_pslverr : 1
# active_monitor ...sequence...
# UVM_INFO apb_active_monitor.sv(35) @ 35: uvm_test_top.env.active_agent.active_monitor [uvm_test_top.env.active_agent.active_monitor] apb_seeq_item -> psel: 1 | penable : 1 | pwrite : 0 | paddr : 3538138468 | pwdata : 752883399 | pstrb : 0100 | prdata : 0 | pready : 0 | pslverr : 1
# passive_monitor ...sequence...
# UVM_INFO apb_passive_monitor.sv(31) @ 45: uvm_test_top.env.passive_agent.passive_monitor [uvm_test_top.env.passive_agent.passive_monitor] apb_seeq_item -> psel: 0 | penable : 0 | pwrite : 0 | paddr : 0 | pwdata : 0 | pstrb : 0000 | prdata : 4294967295 | pready : 1 | pslverr : 1
# UVM_INFO apb_scoreboard.sv(68) @ 45: uvm_test_top.env.scoreboard [uvm_test_top.env.scoreboard] MATCH HAS OCCURED WITH PSLVERR...
# UVM_INFO apb_scoreboard.sv(69) @ 45: uvm_test_top.env.scoreboard [uvm_test_top.env.scoreboard] @slverr -> exp_slv_err : 1 | act_slv_err : 1
# active_monitor ...sequence...
# UVM_INFO apb_active_monitor.sv(35) @ 55: uvm_test_top.env.active_agent.active_monitor [uvm_test_top.env.active_agent.active_monitor] apb_seeq_item -> psel: 1 | penable : 1 | pwrite : 0 | paddr : 3116613902 | pwdata : 440953675 | pstrb : 0011 | prdata : 0 | pready : 0 | pslverr : 1
# passive_monitor ...sequence...
# UVM_INFO apb_passive_monitor.sv(31) @ 65: uvm_test_top.env.passive_agent.passive_monitor [uvm_test_top.env.passive_agent.passive_monitor] apb_seeq_item -> psel: 0 | penable : 0 | pwrite : 0 | paddr : 0 | pwdata : 0 | pstrb : 0000 | prdata : 4294967295 | pready : 1 | pslverr : 1
# UVM_INFO apb_scoreboard.sv(68) @ 65: uvm_test_top.env.scoreboard [uvm_test_top.env.scoreboard] MATCH HAS OCCURED WITH PSLVERR...
# UVM_INFO apb_scoreboard.sv(69) @ 65: uvm_test_top.env.scoreboard [uvm_test_top.env.scoreboard] @slverr -> exp_slv_err : 1 | act_slv_err : 1
# active_monitor ...sequence...
# UVM_INFO apb_active_monitor.sv(35) @ 75: uvm_test_top.env.active_agent.active_monitor [uvm_test_top.env.active_agent.active_monitor] apb_seeq_item -> psel: 0 | penable : 0 | pwrite : 1 | paddr : 1032571443 | pwdata : 227536411 | pstrb : 1000 | prdata : 0 | pready : 0 | pslverr : 1
# active_monitor ...sequence...
# UVM_INFO apb_active_monitor.sv(35) @ 85: uvm_test_top.env.active_agent.active_monitor [uvm_test_top.env.active_agent.active_monitor] apb_seeq_item -> psel: 0 | penable : 1 | pwrite : 1 | paddr : 3761849038 | pwdata : 4218294677 | pstrb : 0010 | prdata : 0 | pready : 0 | pslverr : 1
# active_monitor ...sequence...
# UVM_INFO apb_active_monitor.sv(35) @ 95: uvm_test_top.env.active_agent.active_monitor [uvm_test_top.env.active_agent.active_monitor] apb_seeq_item -> psel: 0 | penable : 0 | pwrite : 1 | paddr : 3293024472 | pwdata : 1195730146 | pstrb : 1111 | prdata : 0 | pready : 0 | pslverr : 1
# active_monitor ...sequence...
# UVM_INFO apb_active_monitor.sv(35) @ 105: uvm_test_top.env.active_agent.active_monitor [uvm_test_top.env.active_agent.active_monitor] apb_seeq_item -> psel: 0 | penable : 1 | pwrite : 0 | paddr : 1178367741 | pwdata : 830407299 | pstrb : 1000 | prdata : 0 | pready : 0 | pslverr : 1
# active_monitor ...sequence...
# UVM_INFO apb_active_monitor.sv(35) @ 115: uvm_test_top.env.active_agent.active_monitor [uvm_test_top.env.active_agent.active_monitor] apb_seeq_item -> psel: 1 | penable : 0 | pwrite : 1 | paddr : 3955160497 | pwdata : 3498530529 | pstrb : 1001 | prdata : 0 | pready : 0 | pslverr : 1
# active_monitor ...sequence...
# UVM_INFO apb_active_monitor.sv(35) @ 125: uvm_test_top.env.active_agent.active_monitor [uvm_test_top.env.active_agent.active_monitor] apb_seeq_item -> psel: 1 | penable : 0 | pwrite : 1 | paddr : 3509670835 | pwdata : 2867723903 | pstrb : 1100 | prdata : 0 | pready : 0 | pslverr : 1
# active_monitor ...sequence...
# UVM_INFO apb_active_monitor.sv(35) @ 135: uvm_test_top.env.active_agent.active_monitor [uvm_test_top.env.active_agent.active_monitor] apb_seeq_item -> psel: 1 | penable : 1 | pwrite : 1 | paddr : 4067285552 | pwdata : 26255810 | pstrb : 1010 | prdata : 0 | pready : 0 | pslverr : 1
# passive_monitor ...sequence...
# UVM_INFO apb_passive_monitor.sv(31) @ 145: uvm_test_top.env.passive_agent.passive_monitor [uvm_test_top.env.passive_agent.passive_monitor] apb_seeq_item -> psel: 0 | penable : 0 | pwrite : 0 | paddr : 0 | pwdata : 0 | pstrb : 0000 | prdata : 0 | pready : 1 | pslverr : 1
# UVM_INFO apb_scoreboard.sv(47) @ 145: uvm_test_top.env.scoreboard [apb_slv_scoreboard] mem : 0 0 0 0 0 0 0 0 0 0 0 0 0 0 0 0 0 0 0 0 0 0 0 0 0 0 0 0 0 0 0 0 0 0 0 0 0 0 0 0 0 0 0 0 0 0 0 0 0 0 0 0 0 0 0 0 0 0 0 0 0 0 0 0 0 0 0 0 0 0 0 0 0 0 0 0 0 0 0 0 0 0 0 0 0 0 0 0 0 0 0 0 0 0 0 0 0 0 0 0 0 0 0 0 0 0 0 0 0 0 0 0 0 0 0 0 0 0 0 0 0 0 0 0 0 0 0 0 0 0 0 0 0 0 0 0 0 0 0 0 0 0 0 0 0 0 0 0 0 0 0 0 0 0 0 0 0 0 0 0 0 0 0 0 0 0 0 0 0 0 0 0 0 0 0 0 0 0 0 0 0 0 0 0 0 0 0 0 0 0 0 0 0 0 0 0 0 0 0 0 0 0 0 0 0 0 0 0 0 0 0 0 0 0 0 0 0 0 0 0 0 0 0 0 0 0 0 0 0 0 0 0 0 0 0 0 0 0 0 0 0 0 0 0 0 0 0 0 0 0 0 0 0 0 0 0
# exp_pslverr : 1
# active_monitor ...sequence...
# UVM_INFO apb_active_monitor.sv(35) @ 155: uvm_test_top.env.active_agent.active_monitor [uvm_test_top.env.active_agent.active_monitor] apb_seeq_item -> psel: 0 | penable : 0 | pwrite : 0 | paddr : 1995165210 | pwdata : 1663438425 | pstrb : 1010 | prdata : 0 | pready : 0 | pslverr : 1
# active_monitor ...sequence...
# UVM_INFO apb_active_monitor.sv(35) @ 165: uvm_test_top.env.active_agent.active_monitor [uvm_test_top.env.active_agent.active_monitor] apb_seeq_item -> psel: 0 | penable : 1 | pwrite : 1 | paddr : 2470798066 | pwdata : 1326855400 | pstrb : 1100 | prdata : 0 | pready : 0 | pslverr : 1
# active_monitor ...sequence...
# UVM_INFO apb_active_monitor.sv(35) @ 175: uvm_test_top.env.active_agent.active_monitor [uvm_test_top.env.active_agent.active_monitor] apb_seeq_item -> psel: 0 | penable : 1 | pwrite : 0 | paddr : 3232270477 | pwdata : 121353277 | pstrb : 0000 | prdata : 0 | pready : 0 | pslverr : 1
# active_monitor ...sequence...
# UVM_INFO apb_active_monitor.sv(35) @ 185: uvm_test_top.env.active_agent.active_monitor [uvm_test_top.env.active_agent.active_monitor] apb_seeq_item -> psel: 0 | penable : 0 | pwrite : 1 | paddr : 3342185687 | pwdata : 4250319788 | pstrb : 1001 | prdata : 0 | pready : 0 | pslverr : 1
# active_monitor ...sequence...
# UVM_INFO apb_active_monitor.sv(35) @ 195: uvm_test_top.env.active_agent.active_monitor [uvm_test_top.env.active_agent.active_monitor] apb_seeq_item -> psel: 1 | penable : 1 | pwrite : 0 | paddr : 1274516168 | pwdata : 1255477525 | pstrb : 1101 | prdata : 0 | pready : 0 | pslverr : 1
# passive_monitor ...sequence...
# UVM_INFO apb_passive_monitor.sv(31) @ 205: uvm_test_top.env.passive_agent.passive_monitor [uvm_test_top.env.passive_agent.passive_monitor] apb_seeq_item -> psel: 0 | penable : 0 | pwrite : 0 | paddr : 0 | pwdata : 0 | pstrb : 0000 | prdata : 4294967295 | pready : 1 | pslverr : 1
# UVM_INFO apb_scoreboard.sv(68) @ 205: uvm_test_top.env.scoreboard [uvm_test_top.env.scoreboard] MATCH HAS OCCURED WITH PSLVERR...
# UVM_INFO apb_scoreboard.sv(69) @ 205: uvm_test_top.env.scoreboard [uvm_test_top.env.scoreboard] @slverr -> exp_slv_err : 1 | act_slv_err : 1
# active_monitor ...sequence...
# UVM_INFO apb_active_monitor.sv(35) @ 215: uvm_test_top.env.active_agent.active_monitor [uvm_test_top.env.active_agent.active_monitor] apb_seeq_item -> psel: 0 | penable : 0 | pwrite : 1 | paddr : 3764911248 | pwdata : 2964605284 | pstrb : 1010 | prdata : 0 | pready : 0 | pslverr : 1
# active_monitor ...sequence...
# UVM_INFO apb_active_monitor.sv(35) @ 225: uvm_test_top.env.active_agent.active_monitor [uvm_test_top.env.active_agent.active_monitor] apb_seeq_item -> psel: 0 | penable : 1 | pwrite : 0 | paddr : 1021751386 | pwdata : 2800513480 | pstrb : 1010 | prdata : 0 | pready : 0 | pslverr : 1
# active_monitor ...sequence...
# UVM_INFO apb_active_monitor.sv(35) @ 235: uvm_test_top.env.active_agent.active_monitor [uvm_test_top.env.active_agent.active_monitor] apb_seeq_item -> psel: 1 | penable : 1 | pwrite : 1 | paddr : 1949448797 | pwdata : 41393171 | pstrb : 1010 | prdata : 0 | pready : 0 | pslverr : 1
# passive_monitor ...sequence...
# UVM_INFO apb_passive_monitor.sv(31) @ 245: uvm_test_top.env.passive_agent.passive_monitor [uvm_test_top.env.passive_agent.passive_monitor] apb_seeq_item -> psel: 0 | penable : 0 | pwrite : 0 | paddr : 0 | pwdata : 0 | pstrb : 0000 | prdata : 0 | pready : 1 | pslverr : 1
# UVM_INFO apb_scoreboard.sv(47) @ 245: uvm_test_top.env.scoreboard [apb_slv_scoreboard] mem : 0 0 0 0 0 0 0 0 0 0 0 0 0 0 0 0 0 0 0 0 0 0 0 0 0 0 0 0 0 0 0 0 0 0 0 0 0 0 0 0 0 0 0 0 0 0 0 0 0 0 0 0 0 0 0 0 0 0 0 0 0 0 0 0 0 0 0 0 0 0 0 0 0 0 0 0 0 0 0 0 0 0 0 0 0 0 0 0 0 0 0 0 0 0 0 0 0 0 0 0 0 0 0 0 0 0 0 0 0 0 0 0 0 0 0 0 0 0 0 0 0 0 0 0 0 0 0 0 0 0 0 0 0 0 0 0 0 0 0 0 0 0 0 0 0 0 0 0 0 0 0 0 0 0 0 0 0 0 0 0 0 0 0 0 0 0 0 0 0 0 0 0 0 0 0 0 0 0 0 0 0 0 0 0 0 0 0 0 0 0 0 0 0 0 0 0 0 0 0 0 0 0 0 0 0 0 0 0 0 0 0 0 0 0 0 0 0 0 0 0 0 0 0 0 0 0 0 0 0 0 0 0 0 0 0 0 0 0 0 0 0 0 0 0 0 0 0 0 0 0 0 0 0 0 0 0
# exp_pslverr : 1
# active_monitor ...sequence...
# UVM_INFO apb_active_monitor.sv(35) @ 255: uvm_test_top.env.active_agent.active_monitor [uvm_test_top.env.active_agent.active_monitor] apb_seeq_item -> psel: 0 | penable : 1 | pwrite : 1 | paddr : 3792171440 | pwdata : 2345020175 | pstrb : 1001 | prdata : 0 | pready : 0 | pslverr : 1
# active_monitor ...sequence...
# UVM_INFO apb_active_monitor.sv(35) @ 265: uvm_test_top.env.active_agent.active_monitor [uvm_test_top.env.active_agent.active_monitor] apb_seeq_item -> psel: 0 | penable : 0 | pwrite : 0 | paddr : 3168909432 | pwdata : 2136835533 | pstrb : 0100 | prdata : 0 | pready : 0 | pslverr : 1
# active_monitor ...sequence...
# UVM_INFO apb_active_monitor.sv(35) @ 275: uvm_test_top.env.active_agent.active_monitor [uvm_test_top.env.active_agent.active_monitor] apb_seeq_item -> psel: 0 | penable : 0 | pwrite : 1 | paddr : 0 | pwdata : 5 | pstrb : 1111 | prdata : 0 | pready : 0 | pslverr : 1
# active_monitor ...sequence...
# UVM_INFO apb_active_monitor.sv(35) @ 285: uvm_test_top.env.active_agent.active_monitor [uvm_test_top.env.active_agent.active_monitor] apb_seeq_item -> psel: 1 | penable : 0 | pwrite : 1 | paddr : 0 | pwdata : 5 | pstrb : 1111 | prdata : 0 | pready : 0 | pslverr : 1
# active_monitor ...sequence...
# UVM_INFO apb_active_monitor.sv(35) @ 295: uvm_test_top.env.active_agent.active_monitor [uvm_test_top.env.active_agent.active_monitor] apb_seeq_item -> psel: 1 | penable : 1 | pwrite : 1 | paddr : 0 | pwdata : 5 | pstrb : 1111 | prdata : 0 | pready : 0 | pslverr : 1
# passive_monitor ...sequence...
# UVM_INFO apb_passive_monitor.sv(31) @ 305: uvm_test_top.env.passive_agent.passive_monitor [uvm_test_top.env.passive_agent.passive_monitor] apb_seeq_item -> psel: 0 | penable : 0 | pwrite : 0 | paddr : 0 | pwdata : 0 | pstrb : 0000 | prdata : 0 | pready : 1 | pslverr : 0
# UVM_INFO apb_scoreboard.sv(47) @ 305: uvm_test_top.env.scoreboard [apb_slv_scoreboard] mem : 5 0 0 0 0 0 0 0 0 0 0 0 0 0 0 0 0 0 0 0 0 0 0 0 0 0 0 0 0 0 0 0 0 0 0 0 0 0 0 0 0 0 0 0 0 0 0 0 0 0 0 0 0 0 0 0 0 0 0 0 0 0 0 0 0 0 0 0 0 0 0 0 0 0 0 0 0 0 0 0 0 0 0 0 0 0 0 0 0 0 0 0 0 0 0 0 0 0 0 0 0 0 0 0 0 0 0 0 0 0 0 0 0 0 0 0 0 0 0 0 0 0 0 0 0 0 0 0 0 0 0 0 0 0 0 0 0 0 0 0 0 0 0 0 0 0 0 0 0 0 0 0 0 0 0 0 0 0 0 0 0 0 0 0 0 0 0 0 0 0 0 0 0 0 0 0 0 0 0 0 0 0 0 0 0 0 0 0 0 0 0 0 0 0 0 0 0 0 0 0 0 0 0 0 0 0 0 0 0 0 0 0 0 0 0 0 0 0 0 0 0 0 0 0 0 0 0 0 0 0 0 0 0 0 0 0 0 0 0 0 0 0 0 0 0 0 0 0 0 0 0 0 0 0 0 0
# exp_pslverr : 0
# active_monitor ...sequence...
# UVM_INFO apb_active_monitor.sv(35) @ 315: uvm_test_top.env.active_agent.active_monitor [uvm_test_top.env.active_agent.active_monitor] apb_seeq_item -> psel: 1 | penable : 0 | pwrite : 0 | paddr : 2289375888 | pwdata : 2545090849 | pstrb : 1000 | prdata : 0 | pready : 0 | pslverr : 0
# active_monitor ...sequence...
# UVM_INFO apb_active_monitor.sv(35) @ 325: uvm_test_top.env.active_agent.active_monitor [uvm_test_top.env.active_agent.active_monitor] apb_seeq_item -> psel: 1 | penable : 0 | pwrite : 1 | paddr : 1 | pwdata : 10 | pstrb : 1111 | prdata : 0 | pready : 0 | pslverr : 0
# active_monitor ...sequence...
# UVM_INFO apb_active_monitor.sv(35) @ 335: uvm_test_top.env.active_agent.active_monitor [uvm_test_top.env.active_agent.active_monitor] apb_seeq_item -> psel: 1 | penable : 1 | pwrite : 1 | paddr : 1 | pwdata : 10 | pstrb : 1111 | prdata : 0 | pready : 0 | pslverr : 0
# passive_monitor ...sequence...
# UVM_INFO apb_passive_monitor.sv(31) @ 345: uvm_test_top.env.passive_agent.passive_monitor [uvm_test_top.env.passive_agent.passive_monitor] apb_seeq_item -> psel: 0 | penable : 0 | pwrite : 0 | paddr : 0 | pwdata : 0 | pstrb : 0000 | prdata : 0 | pready : 1 | pslverr : 0
# UVM_INFO apb_scoreboard.sv(47) @ 345: uvm_test_top.env.scoreboard [apb_slv_scoreboard] mem : 5 10 0 0 0 0 0 0 0 0 0 0 0 0 0 0 0 0 0 0 0 0 0 0 0 0 0 0 0 0 0 0 0 0 0 0 0 0 0 0 0 0 0 0 0 0 0 0 0 0 0 0 0 0 0 0 0 0 0 0 0 0 0 0 0 0 0 0 0 0 0 0 0 0 0 0 0 0 0 0 0 0 0 0 0 0 0 0 0 0 0 0 0 0 0 0 0 0 0 0 0 0 0 0 0 0 0 0 0 0 0 0 0 0 0 0 0 0 0 0 0 0 0 0 0 0 0 0 0 0 0 0 0 0 0 0 0 0 0 0 0 0 0 0 0 0 0 0 0 0 0 0 0 0 0 0 0 0 0 0 0 0 0 0 0 0 0 0 0 0 0 0 0 0 0 0 0 0 0 0 0 0 0 0 0 0 0 0 0 0 0 0 0 0 0 0 0 0 0 0 0 0 0 0 0 0 0 0 0 0 0 0 0 0 0 0 0 0 0 0 0 0 0 0 0 0 0 0 0 0 0 0 0 0 0 0 0 0 0 0 0 0 0 0 0 0 0 0 0 0 0 0 0 0 0 0
# exp_pslverr : 0
# active_monitor ...sequence...
# UVM_INFO apb_active_monitor.sv(35) @ 355: uvm_test_top.env.active_agent.active_monitor [uvm_test_top.env.active_agent.active_monitor] apb_seeq_item -> psel: 1 | penable : 0 | pwrite : 0 | paddr : 1018390149 | pwdata : 1520740764 | pstrb : 1100 | prdata : 0 | pready : 0 | pslverr : 0
# active_monitor ...sequence...
# UVM_INFO apb_active_monitor.sv(35) @ 365: uvm_test_top.env.active_agent.active_monitor [uvm_test_top.env.active_agent.active_monitor] apb_seeq_item -> psel: 1 | penable : 0 | pwrite : 1 | paddr : 2 | pwdata : 15 | pstrb : 1111 | prdata : 0 | pready : 0 | pslverr : 0
# active_monitor ...sequence...
# UVM_INFO apb_active_monitor.sv(35) @ 375: uvm_test_top.env.active_agent.active_monitor [uvm_test_top.env.active_agent.active_monitor] apb_seeq_item -> psel: 1 | penable : 1 | pwrite : 1 | paddr : 2 | pwdata : 15 | pstrb : 1111 | prdata : 0 | pready : 0 | pslverr : 0
# passive_monitor ...sequence...
# UVM_INFO apb_passive_monitor.sv(31) @ 385: uvm_test_top.env.passive_agent.passive_monitor [uvm_test_top.env.passive_agent.passive_monitor] apb_seeq_item -> psel: 0 | penable : 0 | pwrite : 0 | paddr : 0 | pwdata : 0 | pstrb : 0000 | prdata : 0 | pready : 1 | pslverr : 0
# UVM_INFO apb_scoreboard.sv(47) @ 385: uvm_test_top.env.scoreboard [apb_slv_scoreboard] mem : 5 10 15 0 0 0 0 0 0 0 0 0 0 0 0 0 0 0 0 0 0 0 0 0 0 0 0 0 0 0 0 0 0 0 0 0 0 0 0 0 0 0 0 0 0 0 0 0 0 0 0 0 0 0 0 0 0 0 0 0 0 0 0 0 0 0 0 0 0 0 0 0 0 0 0 0 0 0 0 0 0 0 0 0 0 0 0 0 0 0 0 0 0 0 0 0 0 0 0 0 0 0 0 0 0 0 0 0 0 0 0 0 0 0 0 0 0 0 0 0 0 0 0 0 0 0 0 0 0 0 0 0 0 0 0 0 0 0 0 0 0 0 0 0 0 0 0 0 0 0 0 0 0 0 0 0 0 0 0 0 0 0 0 0 0 0 0 0 0 0 0 0 0 0 0 0 0 0 0 0 0 0 0 0 0 0 0 0 0 0 0 0 0 0 0 0 0 0 0 0 0 0 0 0 0 0 0 0 0 0 0 0 0 0 0 0 0 0 0 0 0 0 0 0 0 0 0 0 0 0 0 0 0 0 0 0 0 0 0 0 0 0 0 0 0 0 0 0 0 0 0 0 0 0 0 0
# exp_pslverr : 0
# active_monitor ...sequence...
# UVM_INFO apb_active_monitor.sv(35) @ 395: uvm_test_top.env.active_agent.active_monitor [uvm_test_top.env.active_agent.active_monitor] apb_seeq_item -> psel: 1 | penable : 0 | pwrite : 0 | paddr : 274696287 | pwdata : 4255911081 | pstrb : 1010 | prdata : 0 | pready : 0 | pslverr : 0
# active_monitor ...sequence...
# UVM_INFO apb_active_monitor.sv(35) @ 405: uvm_test_top.env.active_agent.active_monitor [uvm_test_top.env.active_agent.active_monitor] apb_seeq_item -> psel: 1 | penable : 0 | pwrite : 1 | paddr : 3 | pwdata : 20 | pstrb : 1111 | prdata : 0 | pready : 0 | pslverr : 0
# active_monitor ...sequence...
# UVM_INFO apb_active_monitor.sv(35) @ 415: uvm_test_top.env.active_agent.active_monitor [uvm_test_top.env.active_agent.active_monitor] apb_seeq_item -> psel: 1 | penable : 1 | pwrite : 1 | paddr : 3 | pwdata : 20 | pstrb : 1111 | prdata : 0 | pready : 0 | pslverr : 0
# passive_monitor ...sequence...
# UVM_INFO apb_passive_monitor.sv(31) @ 425: uvm_test_top.env.passive_agent.passive_monitor [uvm_test_top.env.passive_agent.passive_monitor] apb_seeq_item -> psel: 0 | penable : 0 | pwrite : 0 | paddr : 0 | pwdata : 0 | pstrb : 0000 | prdata : 0 | pready : 1 | pslverr : 0
# UVM_INFO apb_scoreboard.sv(47) @ 425: uvm_test_top.env.scoreboard [apb_slv_scoreboard] mem : 5 10 15 20 0 0 0 0 0 0 0 0 0 0 0 0 0 0 0 0 0 0 0 0 0 0 0 0 0 0 0 0 0 0 0 0 0 0 0 0 0 0 0 0 0 0 0 0 0 0 0 0 0 0 0 0 0 0 0 0 0 0 0 0 0 0 0 0 0 0 0 0 0 0 0 0 0 0 0 0 0 0 0 0 0 0 0 0 0 0 0 0 0 0 0 0 0 0 0 0 0 0 0 0 0 0 0 0 0 0 0 0 0 0 0 0 0 0 0 0 0 0 0 0 0 0 0 0 0 0 0 0 0 0 0 0 0 0 0 0 0 0 0 0 0 0 0 0 0 0 0 0 0 0 0 0 0 0 0 0 0 0 0 0 0 0 0 0 0 0 0 0 0 0 0 0 0 0 0 0 0 0 0 0 0 0 0 0 0 0 0 0 0 0 0 0 0 0 0 0 0 0 0 0 0 0 0 0 0 0 0 0 0 0 0 0 0 0 0 0 0 0 0 0 0 0 0 0 0 0 0 0 0 0 0 0 0 0 0 0 0 0 0 0 0 0 0 0 0 0 0 0 0 0 0 0
# exp_pslverr : 0
# active_monitor ...sequence...
# UVM_INFO apb_active_monitor.sv(35) @ 435: uvm_test_top.env.active_agent.active_monitor [uvm_test_top.env.active_agent.active_monitor] apb_seeq_item -> psel: 1 | penable : 0 | pwrite : 1 | paddr : 2384078533 | pwdata : 3162362947 | pstrb : 0011 | prdata : 0 | pready : 0 | pslverr : 0
# active_monitor ...sequence...
# UVM_INFO apb_active_monitor.sv(35) @ 445: uvm_test_top.env.active_agent.active_monitor [uvm_test_top.env.active_agent.active_monitor] apb_seeq_item -> psel: 1 | penable : 0 | pwrite : 1 | paddr : 4 | pwdata : 25 | pstrb : 1111 | prdata : 0 | pready : 0 | pslverr : 0
# active_monitor ...sequence...
# UVM_INFO apb_active_monitor.sv(35) @ 455: uvm_test_top.env.active_agent.active_monitor [uvm_test_top.env.active_agent.active_monitor] apb_seeq_item -> psel: 1 | penable : 1 | pwrite : 1 | paddr : 4 | pwdata : 25 | pstrb : 1111 | prdata : 0 | pready : 0 | pslverr : 0
# passive_monitor ...sequence...
# UVM_INFO apb_passive_monitor.sv(31) @ 465: uvm_test_top.env.passive_agent.passive_monitor [uvm_test_top.env.passive_agent.passive_monitor] apb_seeq_item -> psel: 0 | penable : 0 | pwrite : 0 | paddr : 0 | pwdata : 0 | pstrb : 0000 | prdata : 0 | pready : 1 | pslverr : 0
# UVM_INFO apb_scoreboard.sv(47) @ 465: uvm_test_top.env.scoreboard [apb_slv_scoreboard] mem : 5 10 15 20 25 0 0 0 0 0 0 0 0 0 0 0 0 0 0 0 0 0 0 0 0 0 0 0 0 0 0 0 0 0 0 0 0 0 0 0 0 0 0 0 0 0 0 0 0 0 0 0 0 0 0 0 0 0 0 0 0 0 0 0 0 0 0 0 0 0 0 0 0 0 0 0 0 0 0 0 0 0 0 0 0 0 0 0 0 0 0 0 0 0 0 0 0 0 0 0 0 0 0 0 0 0 0 0 0 0 0 0 0 0 0 0 0 0 0 0 0 0 0 0 0 0 0 0 0 0 0 0 0 0 0 0 0 0 0 0 0 0 0 0 0 0 0 0 0 0 0 0 0 0 0 0 0 0 0 0 0 0 0 0 0 0 0 0 0 0 0 0 0 0 0 0 0 0 0 0 0 0 0 0 0 0 0 0 0 0 0 0 0 0 0 0 0 0 0 0 0 0 0 0 0 0 0 0 0 0 0 0 0 0 0 0 0 0 0 0 0 0 0 0 0 0 0 0 0 0 0 0 0 0 0 0 0 0 0 0 0 0 0 0 0 0 0 0 0 0 0 0 0 0 0 0
# exp_pslverr : 0
# active_monitor ...sequence...
# UVM_INFO apb_active_monitor.sv(35) @ 475: uvm_test_top.env.active_agent.active_monitor [uvm_test_top.env.active_agent.active_monitor] apb_seeq_item -> psel: 1 | penable : 0 | pwrite : 1 | paddr : 295670268 | pwdata : 249006305 | pstrb : 0010 | prdata : 0 | pready : 0 | pslverr : 0
# active_monitor ...sequence...
# UVM_INFO apb_active_monitor.sv(35) @ 485: uvm_test_top.env.active_agent.active_monitor [uvm_test_top.env.active_agent.active_monitor] apb_seeq_item -> psel: 1 | penable : 0 | pwrite : 1 | paddr : 5 | pwdata : 30 | pstrb : 1111 | prdata : 0 | pready : 0 | pslverr : 0
# active_monitor ...sequence...
# UVM_INFO apb_active_monitor.sv(35) @ 495: uvm_test_top.env.active_agent.active_monitor [uvm_test_top.env.active_agent.active_monitor] apb_seeq_item -> psel: 1 | penable : 1 | pwrite : 1 | paddr : 5 | pwdata : 30 | pstrb : 1111 | prdata : 0 | pready : 0 | pslverr : 0
# passive_monitor ...sequence...
# UVM_INFO apb_passive_monitor.sv(31) @ 505: uvm_test_top.env.passive_agent.passive_monitor [uvm_test_top.env.passive_agent.passive_monitor] apb_seeq_item -> psel: 0 | penable : 0 | pwrite : 0 | paddr : 0 | pwdata : 0 | pstrb : 0000 | prdata : 0 | pready : 1 | pslverr : 0
# UVM_INFO apb_scoreboard.sv(47) @ 505: uvm_test_top.env.scoreboard [apb_slv_scoreboard] mem : 5 10 15 20 25 30 0 0 0 0 0 0 0 0 0 0 0 0 0 0 0 0 0 0 0 0 0 0 0 0 0 0 0 0 0 0 0 0 0 0 0 0 0 0 0 0 0 0 0 0 0 0 0 0 0 0 0 0 0 0 0 0 0 0 0 0 0 0 0 0 0 0 0 0 0 0 0 0 0 0 0 0 0 0 0 0 0 0 0 0 0 0 0 0 0 0 0 0 0 0 0 0 0 0 0 0 0 0 0 0 0 0 0 0 0 0 0 0 0 0 0 0 0 0 0 0 0 0 0 0 0 0 0 0 0 0 0 0 0 0 0 0 0 0 0 0 0 0 0 0 0 0 0 0 0 0 0 0 0 0 0 0 0 0 0 0 0 0 0 0 0 0 0 0 0 0 0 0 0 0 0 0 0 0 0 0 0 0 0 0 0 0 0 0 0 0 0 0 0 0 0 0 0 0 0 0 0 0 0 0 0 0 0 0 0 0 0 0 0 0 0 0 0 0 0 0 0 0 0 0 0 0 0 0 0 0 0 0 0 0 0 0 0 0 0 0 0 0 0 0 0 0 0 0 0 0
# exp_pslverr : 0
# active_monitor ...sequence...
# UVM_INFO apb_active_monitor.sv(35) @ 515: uvm_test_top.env.active_agent.active_monitor [uvm_test_top.env.active_agent.active_monitor] apb_seeq_item -> psel: 1 | penable : 0 | pwrite : 0 | paddr : 63270827 | pwdata : 4023895966 | pstrb : 0111 | prdata : 0 | pready : 0 | pslverr : 0
# active_monitor ...sequence...
# UVM_INFO apb_active_monitor.sv(35) @ 525: uvm_test_top.env.active_agent.active_monitor [uvm_test_top.env.active_agent.active_monitor] apb_seeq_item -> psel: 1 | penable : 0 | pwrite : 1 | paddr : 6 | pwdata : 35 | pstrb : 1111 | prdata : 0 | pready : 0 | pslverr : 0
# active_monitor ...sequence...
# UVM_INFO apb_active_monitor.sv(35) @ 535: uvm_test_top.env.active_agent.active_monitor [uvm_test_top.env.active_agent.active_monitor] apb_seeq_item -> psel: 1 | penable : 1 | pwrite : 1 | paddr : 6 | pwdata : 35 | pstrb : 1111 | prdata : 0 | pready : 0 | pslverr : 0
# passive_monitor ...sequence...
# UVM_INFO apb_passive_monitor.sv(31) @ 545: uvm_test_top.env.passive_agent.passive_monitor [uvm_test_top.env.passive_agent.passive_monitor] apb_seeq_item -> psel: 0 | penable : 0 | pwrite : 0 | paddr : 0 | pwdata : 0 | pstrb : 0000 | prdata : 0 | pready : 1 | pslverr : 0
# UVM_INFO apb_scoreboard.sv(47) @ 545: uvm_test_top.env.scoreboard [apb_slv_scoreboard] mem : 5 10 15 20 25 30 35 0 0 0 0 0 0 0 0 0 0 0 0 0 0 0 0 0 0 0 0 0 0 0 0 0 0 0 0 0 0 0 0 0 0 0 0 0 0 0 0 0 0 0 0 0 0 0 0 0 0 0 0 0 0 0 0 0 0 0 0 0 0 0 0 0 0 0 0 0 0 0 0 0 0 0 0 0 0 0 0 0 0 0 0 0 0 0 0 0 0 0 0 0 0 0 0 0 0 0 0 0 0 0 0 0 0 0 0 0 0 0 0 0 0 0 0 0 0 0 0 0 0 0 0 0 0 0 0 0 0 0 0 0 0 0 0 0 0 0 0 0 0 0 0 0 0 0 0 0 0 0 0 0 0 0 0 0 0 0 0 0 0 0 0 0 0 0 0 0 0 0 0 0 0 0 0 0 0 0 0 0 0 0 0 0 0 0 0 0 0 0 0 0 0 0 0 0 0 0 0 0 0 0 0 0 0 0 0 0 0 0 0 0 0 0 0 0 0 0 0 0 0 0 0 0 0 0 0 0 0 0 0 0 0 0 0 0 0 0 0 0 0 0 0 0 0 0 0 0
# exp_pslverr : 0
# active_monitor ...sequence...
# UVM_INFO apb_active_monitor.sv(35) @ 555: uvm_test_top.env.active_agent.active_monitor [uvm_test_top.env.active_agent.active_monitor] apb_seeq_item -> psel: 1 | penable : 0 | pwrite : 0 | paddr : 4048236077 | pwdata : 3784415795 | pstrb : 1011 | prdata : 0 | pready : 0 | pslverr : 0
# active_monitor ...sequence...
# UVM_INFO apb_active_monitor.sv(35) @ 565: uvm_test_top.env.active_agent.active_monitor [uvm_test_top.env.active_agent.active_monitor] apb_seeq_item -> psel: 1 | penable : 0 | pwrite : 1 | paddr : 7 | pwdata : 40 | pstrb : 1111 | prdata : 0 | pready : 0 | pslverr : 0
# active_monitor ...sequence...
# UVM_INFO apb_active_monitor.sv(35) @ 575: uvm_test_top.env.active_agent.active_monitor [uvm_test_top.env.active_agent.active_monitor] apb_seeq_item -> psel: 1 | penable : 1 | pwrite : 1 | paddr : 7 | pwdata : 40 | pstrb : 1111 | prdata : 0 | pready : 0 | pslverr : 0
# passive_monitor ...sequence...
# UVM_INFO apb_passive_monitor.sv(31) @ 585: uvm_test_top.env.passive_agent.passive_monitor [uvm_test_top.env.passive_agent.passive_monitor] apb_seeq_item -> psel: 0 | penable : 0 | pwrite : 0 | paddr : 0 | pwdata : 0 | pstrb : 0000 | prdata : 0 | pready : 1 | pslverr : 0
# UVM_INFO apb_scoreboard.sv(47) @ 585: uvm_test_top.env.scoreboard [apb_slv_scoreboard] mem : 5 10 15 20 25 30 35 40 0 0 0 0 0 0 0 0 0 0 0 0 0 0 0 0 0 0 0 0 0 0 0 0 0 0 0 0 0 0 0 0 0 0 0 0 0 0 0 0 0 0 0 0 0 0 0 0 0 0 0 0 0 0 0 0 0 0 0 0 0 0 0 0 0 0 0 0 0 0 0 0 0 0 0 0 0 0 0 0 0 0 0 0 0 0 0 0 0 0 0 0 0 0 0 0 0 0 0 0 0 0 0 0 0 0 0 0 0 0 0 0 0 0 0 0 0 0 0 0 0 0 0 0 0 0 0 0 0 0 0 0 0 0 0 0 0 0 0 0 0 0 0 0 0 0 0 0 0 0 0 0 0 0 0 0 0 0 0 0 0 0 0 0 0 0 0 0 0 0 0 0 0 0 0 0 0 0 0 0 0 0 0 0 0 0 0 0 0 0 0 0 0 0 0 0 0 0 0 0 0 0 0 0 0 0 0 0 0 0 0 0 0 0 0 0 0 0 0 0 0 0 0 0 0 0 0 0 0 0 0 0 0 0 0 0 0 0 0 0 0 0 0 0 0 0 0 0
# exp_pslverr : 0
# active_monitor ...sequence...
# UVM_INFO apb_active_monitor.sv(35) @ 595: uvm_test_top.env.active_agent.active_monitor [uvm_test_top.env.active_agent.active_monitor] apb_seeq_item -> psel: 1 | penable : 0 | pwrite : 1 | paddr : 4210860818 | pwdata : 3219126550 | pstrb : 1010 | prdata : 0 | pready : 0 | pslverr : 0
# active_monitor ...sequence...
# UVM_INFO apb_active_monitor.sv(35) @ 605: uvm_test_top.env.active_agent.active_monitor [uvm_test_top.env.active_agent.active_monitor] apb_seeq_item -> psel: 1 | penable : 0 | pwrite : 1 | paddr : 8 | pwdata : 45 | pstrb : 1111 | prdata : 0 | pready : 0 | pslverr : 0
# active_monitor ...sequence...
# UVM_INFO apb_active_monitor.sv(35) @ 615: uvm_test_top.env.active_agent.active_monitor [uvm_test_top.env.active_agent.active_monitor] apb_seeq_item -> psel: 1 | penable : 1 | pwrite : 1 | paddr : 8 | pwdata : 45 | pstrb : 1111 | prdata : 0 | pready : 0 | pslverr : 0
# passive_monitor ...sequence...
# UVM_INFO apb_passive_monitor.sv(31) @ 625: uvm_test_top.env.passive_agent.passive_monitor [uvm_test_top.env.passive_agent.passive_monitor] apb_seeq_item -> psel: 0 | penable : 0 | pwrite : 0 | paddr : 0 | pwdata : 0 | pstrb : 0000 | prdata : 0 | pready : 1 | pslverr : 0
# UVM_INFO apb_scoreboard.sv(47) @ 625: uvm_test_top.env.scoreboard [apb_slv_scoreboard] mem : 5 10 15 20 25 30 35 40 45 0 0 0 0 0 0 0 0 0 0 0 0 0 0 0 0 0 0 0 0 0 0 0 0 0 0 0 0 0 0 0 0 0 0 0 0 0 0 0 0 0 0 0 0 0 0 0 0 0 0 0 0 0 0 0 0 0 0 0 0 0 0 0 0 0 0 0 0 0 0 0 0 0 0 0 0 0 0 0 0 0 0 0 0 0 0 0 0 0 0 0 0 0 0 0 0 0 0 0 0 0 0 0 0 0 0 0 0 0 0 0 0 0 0 0 0 0 0 0 0 0 0 0 0 0 0 0 0 0 0 0 0 0 0 0 0 0 0 0 0 0 0 0 0 0 0 0 0 0 0 0 0 0 0 0 0 0 0 0 0 0 0 0 0 0 0 0 0 0 0 0 0 0 0 0 0 0 0 0 0 0 0 0 0 0 0 0 0 0 0 0 0 0 0 0 0 0 0 0 0 0 0 0 0 0 0 0 0 0 0 0 0 0 0 0 0 0 0 0 0 0 0 0 0 0 0 0 0 0 0 0 0 0 0 0 0 0 0 0 0 0 0 0 0 0 0 0
# exp_pslverr : 0
# active_monitor ...sequence...
# UVM_INFO apb_active_monitor.sv(35) @ 635: uvm_test_top.env.active_agent.active_monitor [uvm_test_top.env.active_agent.active_monitor] apb_seeq_item -> psel: 1 | penable : 0 | pwrite : 1 | paddr : 659588909 | pwdata : 2685387082 | pstrb : 1010 | prdata : 0 | pready : 0 | pslverr : 0
# active_monitor ...sequence...
# UVM_INFO apb_active_monitor.sv(35) @ 645: uvm_test_top.env.active_agent.active_monitor [uvm_test_top.env.active_agent.active_monitor] apb_seeq_item -> psel: 1 | penable : 0 | pwrite : 1 | paddr : 9 | pwdata : 50 | pstrb : 1111 | prdata : 0 | pready : 0 | pslverr : 0
# active_monitor ...sequence...
# UVM_INFO apb_active_monitor.sv(35) @ 655: uvm_test_top.env.active_agent.active_monitor [uvm_test_top.env.active_agent.active_monitor] apb_seeq_item -> psel: 1 | penable : 1 | pwrite : 1 | paddr : 9 | pwdata : 50 | pstrb : 1111 | prdata : 0 | pready : 0 | pslverr : 0
# passive_monitor ...sequence...
# UVM_INFO apb_passive_monitor.sv(31) @ 665: uvm_test_top.env.passive_agent.passive_monitor [uvm_test_top.env.passive_agent.passive_monitor] apb_seeq_item -> psel: 0 | penable : 0 | pwrite : 0 | paddr : 0 | pwdata : 0 | pstrb : 0000 | prdata : 0 | pready : 1 | pslverr : 0
# UVM_INFO apb_scoreboard.sv(47) @ 665: uvm_test_top.env.scoreboard [apb_slv_scoreboard] mem : 5 10 15 20 25 30 35 40 45 50 0 0 0 0 0 0 0 0 0 0 0 0 0 0 0 0 0 0 0 0 0 0 0 0 0 0 0 0 0 0 0 0 0 0 0 0 0 0 0 0 0 0 0 0 0 0 0 0 0 0 0 0 0 0 0 0 0 0 0 0 0 0 0 0 0 0 0 0 0 0 0 0 0 0 0 0 0 0 0 0 0 0 0 0 0 0 0 0 0 0 0 0 0 0 0 0 0 0 0 0 0 0 0 0 0 0 0 0 0 0 0 0 0 0 0 0 0 0 0 0 0 0 0 0 0 0 0 0 0 0 0 0 0 0 0 0 0 0 0 0 0 0 0 0 0 0 0 0 0 0 0 0 0 0 0 0 0 0 0 0 0 0 0 0 0 0 0 0 0 0 0 0 0 0 0 0 0 0 0 0 0 0 0 0 0 0 0 0 0 0 0 0 0 0 0 0 0 0 0 0 0 0 0 0 0 0 0 0 0 0 0 0 0 0 0 0 0 0 0 0 0 0 0 0 0 0 0 0 0 0 0 0 0 0 0 0 0 0 0 0 0 0 0 0 0 0
# exp_pslverr : 0
# active_monitor ...sequence...
# UVM_INFO apb_active_monitor.sv(35) @ 675: uvm_test_top.env.active_agent.active_monitor [uvm_test_top.env.active_agent.active_monitor] apb_seeq_item -> psel: 1 | penable : 0 | pwrite : 0 | paddr : 940775366 | pwdata : 1278783902 | pstrb : 1100 | prdata : 0 | pready : 0 | pslverr : 0
# active_monitor ...sequence...
# UVM_INFO apb_active_monitor.sv(35) @ 685: uvm_test_top.env.active_agent.active_monitor [uvm_test_top.env.active_agent.active_monitor] apb_seeq_item -> psel: 0 | penable : 0 | pwrite : 0 | paddr : 0 | pwdata : 1064533463 | pstrb : 0001 | prdata : 0 | pready : 0 | pslverr : 0
# active_monitor ...sequence...
# UVM_INFO apb_active_monitor.sv(35) @ 695: uvm_test_top.env.active_agent.active_monitor [uvm_test_top.env.active_agent.active_monitor] apb_seeq_item -> psel: 1 | penable : 0 | pwrite : 0 | paddr : 0 | pwdata : 2229307278 | pstrb : 0111 | prdata : 0 | pready : 0 | pslverr : 0
# active_monitor ...sequence...
# UVM_INFO apb_active_monitor.sv(35) @ 705: uvm_test_top.env.active_agent.active_monitor [uvm_test_top.env.active_agent.active_monitor] apb_seeq_item -> psel: 1 | penable : 1 | pwrite : 0 | paddr : 0 | pwdata : 580172225 | pstrb : 0100 | prdata : 0 | pready : 0 | pslverr : 0
# passive_monitor ...sequence...
# UVM_INFO apb_passive_monitor.sv(31) @ 715: uvm_test_top.env.passive_agent.passive_monitor [uvm_test_top.env.passive_agent.passive_monitor] apb_seeq_item -> psel: 0 | penable : 0 | pwrite : 0 | paddr : 0 | pwdata : 0 | pstrb : 0000 | prdata : 5 | pready : 1 | pslverr : 0
# UVM_INFO apb_scoreboard.sv(55) @ 715: uvm_test_top.env.scoreboard [uvm_test_top.env.scoreboard] MATCH HAS OCCURED...
# UVM_INFO apb_scoreboard.sv(56) @ 715: uvm_test_top.env.scoreboard [uvm_test_top.env.scoreboard] @addres -> mem : 5  |  rdata : 5
# active_monitor ...sequence...
# UVM_INFO apb_active_monitor.sv(35) @ 725: uvm_test_top.env.active_agent.active_monitor [uvm_test_top.env.active_agent.active_monitor] apb_seeq_item -> psel: 1 | penable : 0 | pwrite : 1 | paddr : 2873629989 | pwdata : 1402522297 | pstrb : 0101 | prdata : 0 | pready : 0 | pslverr : 0
# active_monitor ...sequence...
# UVM_INFO apb_active_monitor.sv(35) @ 735: uvm_test_top.env.active_agent.active_monitor [uvm_test_top.env.active_agent.active_monitor] apb_seeq_item -> psel: 1 | penable : 0 | pwrite : 0 | paddr : 30 | pwdata : 2119386435 | pstrb : 0101 | prdata : 0 | pready : 0 | pslverr : 0
# active_monitor ...sequence...
# UVM_INFO apb_active_monitor.sv(35) @ 745: uvm_test_top.env.active_agent.active_monitor [uvm_test_top.env.active_agent.active_monitor] apb_seeq_item -> psel: 1 | penable : 1 | pwrite : 0 | paddr : 30 | pwdata : 416349664 | pstrb : 1001 | prdata : 0 | pready : 0 | pslverr : 0
# passive_monitor ...sequence...
# UVM_INFO apb_passive_monitor.sv(31) @ 755: uvm_test_top.env.passive_agent.passive_monitor [uvm_test_top.env.passive_agent.passive_monitor] apb_seeq_item -> psel: 0 | penable : 0 | pwrite : 0 | paddr : 0 | pwdata : 0 | pstrb : 0000 | prdata : 0 | pready : 1 | pslverr : 0
# UVM_INFO apb_scoreboard.sv(55) @ 755: uvm_test_top.env.scoreboard [uvm_test_top.env.scoreboard] MATCH HAS OCCURED...
# UVM_INFO apb_scoreboard.sv(56) @ 755: uvm_test_top.env.scoreboard [uvm_test_top.env.scoreboard] @addres -> mem : 0  |  rdata : 0
# active_monitor ...sequence...
# UVM_INFO apb_active_monitor.sv(35) @ 765: uvm_test_top.env.active_agent.active_monitor [uvm_test_top.env.active_agent.active_monitor] apb_seeq_item -> psel: 1 | penable : 0 | pwrite : 0 | paddr : 162726666 | pwdata : 4086774112 | pstrb : 1010 | prdata : 0 | pready : 0 | pslverr : 0
# active_monitor ...sequence...
# UVM_INFO apb_active_monitor.sv(35) @ 775: uvm_test_top.env.active_agent.active_monitor [uvm_test_top.env.active_agent.active_monitor] apb_seeq_item -> psel: 1 | penable : 0 | pwrite : 0 | paddr : 60 | pwdata : 3791668330 | pstrb : 0110 | prdata : 0 | pready : 0 | pslverr : 0
# active_monitor ...sequence...
# UVM_INFO apb_active_monitor.sv(35) @ 785: uvm_test_top.env.active_agent.active_monitor [uvm_test_top.env.active_agent.active_monitor] apb_seeq_item -> psel: 1 | penable : 1 | pwrite : 0 | paddr : 60 | pwdata : 2170112419 | pstrb : 1111 | prdata : 0 | pready : 0 | pslverr : 0
# passive_monitor ...sequence...
# UVM_INFO apb_passive_monitor.sv(31) @ 795: uvm_test_top.env.passive_agent.passive_monitor [uvm_test_top.env.passive_agent.passive_monitor] apb_seeq_item -> psel: 0 | penable : 0 | pwrite : 0 | paddr : 0 | pwdata : 0 | pstrb : 0000 | prdata : 0 | pready : 1 | pslverr : 0
# UVM_INFO apb_scoreboard.sv(55) @ 795: uvm_test_top.env.scoreboard [uvm_test_top.env.scoreboard] MATCH HAS OCCURED...
# UVM_INFO apb_scoreboard.sv(56) @ 795: uvm_test_top.env.scoreboard [uvm_test_top.env.scoreboard] @addres -> mem : 0  |  rdata : 0
# active_monitor ...sequence...
# UVM_INFO apb_active_monitor.sv(35) @ 805: uvm_test_top.env.active_agent.active_monitor [uvm_test_top.env.active_agent.active_monitor] apb_seeq_item -> psel: 1 | penable : 0 | pwrite : 1 | paddr : 2976583833 | pwdata : 3561623770 | pstrb : 1110 | prdata : 0 | pready : 0 | pslverr : 0
# active_monitor ...sequence...
# UVM_INFO apb_active_monitor.sv(35) @ 815: uvm_test_top.env.active_agent.active_monitor [uvm_test_top.env.active_agent.active_monitor] apb_seeq_item -> psel: 1 | penable : 0 | pwrite : 0 | paddr : 90 | pwdata : 1085265234 | pstrb : 1110 | prdata : 0 | pready : 0 | pslverr : 0
# active_monitor ...sequence...
# UVM_INFO apb_active_monitor.sv(35) @ 825: uvm_test_top.env.active_agent.active_monitor [uvm_test_top.env.active_agent.active_monitor] apb_seeq_item -> psel: 1 | penable : 1 | pwrite : 0 | paddr : 90 | pwdata : 2192124746 | pstrb : 0111 | prdata : 0 | pready : 0 | pslverr : 0
# passive_monitor ...sequence...
# UVM_INFO apb_passive_monitor.sv(31) @ 835: uvm_test_top.env.passive_agent.passive_monitor [uvm_test_top.env.passive_agent.passive_monitor] apb_seeq_item -> psel: 0 | penable : 0 | pwrite : 0 | paddr : 0 | pwdata : 0 | pstrb : 0000 | prdata : 0 | pready : 1 | pslverr : 0
# UVM_INFO apb_scoreboard.sv(55) @ 835: uvm_test_top.env.scoreboard [uvm_test_top.env.scoreboard] MATCH HAS OCCURED...
# UVM_INFO apb_scoreboard.sv(56) @ 835: uvm_test_top.env.scoreboard [uvm_test_top.env.scoreboard] @addres -> mem : 0  |  rdata : 0
# active_monitor ...sequence...
# UVM_INFO apb_active_monitor.sv(35) @ 845: uvm_test_top.env.active_agent.active_monitor [uvm_test_top.env.active_agent.active_monitor] apb_seeq_item -> psel: 1 | penable : 0 | pwrite : 0 | paddr : 2606005430 | pwdata : 3929093227 | pstrb : 1100 | prdata : 0 | pready : 0 | pslverr : 0
# active_monitor ...sequence...
# UVM_INFO apb_active_monitor.sv(35) @ 855: uvm_test_top.env.active_agent.active_monitor [uvm_test_top.env.active_agent.active_monitor] apb_seeq_item -> psel: 1 | penable : 0 | pwrite : 0 | paddr : 120 | pwdata : 3711582402 | pstrb : 0100 | prdata : 0 | pready : 0 | pslverr : 0
# active_monitor ...sequence...
# UVM_INFO apb_active_monitor.sv(35) @ 865: uvm_test_top.env.active_agent.active_monitor [uvm_test_top.env.active_agent.active_monitor] apb_seeq_item -> psel: 1 | penable : 1 | pwrite : 0 | paddr : 120 | pwdata : 2542323543 | pstrb : 0010 | prdata : 0 | pready : 0 | pslverr : 0
# passive_monitor ...sequence...
# UVM_INFO apb_passive_monitor.sv(31) @ 875: uvm_test_top.env.passive_agent.passive_monitor [uvm_test_top.env.passive_agent.passive_monitor] apb_seeq_item -> psel: 0 | penable : 0 | pwrite : 0 | paddr : 0 | pwdata : 0 | pstrb : 0000 | prdata : 0 | pready : 1 | pslverr : 0
# UVM_INFO apb_scoreboard.sv(55) @ 875: uvm_test_top.env.scoreboard [uvm_test_top.env.scoreboard] MATCH HAS OCCURED...
# UVM_INFO apb_scoreboard.sv(56) @ 875: uvm_test_top.env.scoreboard [uvm_test_top.env.scoreboard] @addres -> mem : 0  |  rdata : 0
# active_monitor ...sequence...
# UVM_INFO apb_active_monitor.sv(35) @ 885: uvm_test_top.env.active_agent.active_monitor [uvm_test_top.env.active_agent.active_monitor] apb_seeq_item -> psel: 1 | penable : 0 | pwrite : 1 | paddr : 1968630871 | pwdata : 2782045400 | pstrb : 0001 | prdata : 0 | pready : 0 | pslverr : 0
# active_monitor ...sequence...
# UVM_INFO apb_active_monitor.sv(35) @ 895: uvm_test_top.env.active_agent.active_monitor [uvm_test_top.env.active_agent.active_monitor] apb_seeq_item -> psel: 1 | penable : 0 | pwrite : 0 | paddr : 150 | pwdata : 3749345732 | pstrb : 0010 | prdata : 0 | pready : 0 | pslverr : 0
# active_monitor ...sequence...
# UVM_INFO apb_active_monitor.sv(35) @ 905: uvm_test_top.env.active_agent.active_monitor [uvm_test_top.env.active_agent.active_monitor] apb_seeq_item -> psel: 1 | penable : 1 | pwrite : 0 | paddr : 150 | pwdata : 3145216472 | pstrb : 1100 | prdata : 0 | pready : 0 | pslverr : 0
# passive_monitor ...sequence...
# UVM_INFO apb_passive_monitor.sv(31) @ 915: uvm_test_top.env.passive_agent.passive_monitor [uvm_test_top.env.passive_agent.passive_monitor] apb_seeq_item -> psel: 0 | penable : 0 | pwrite : 0 | paddr : 0 | pwdata : 0 | pstrb : 0000 | prdata : 0 | pready : 1 | pslverr : 0
# UVM_INFO apb_scoreboard.sv(55) @ 915: uvm_test_top.env.scoreboard [uvm_test_top.env.scoreboard] MATCH HAS OCCURED...
# UVM_INFO apb_scoreboard.sv(56) @ 915: uvm_test_top.env.scoreboard [uvm_test_top.env.scoreboard] @addres -> mem : 0  |  rdata : 0
# active_monitor ...sequence...
# UVM_INFO apb_active_monitor.sv(35) @ 925: uvm_test_top.env.active_agent.active_monitor [uvm_test_top.env.active_agent.active_monitor] apb_seeq_item -> psel: 1 | penable : 0 | pwrite : 0 | paddr : 918393659 | pwdata : 3753057012 | pstrb : 1011 | prdata : 0 | pready : 0 | pslverr : 0
# active_monitor ...sequence...
# UVM_INFO apb_active_monitor.sv(35) @ 935: uvm_test_top.env.active_agent.active_monitor [uvm_test_top.env.active_agent.active_monitor] apb_seeq_item -> psel: 1 | penable : 0 | pwrite : 0 | paddr : 180 | pwdata : 804649299 | pstrb : 0110 | prdata : 0 | pready : 0 | pslverr : 0
# active_monitor ...sequence...
# UVM_INFO apb_active_monitor.sv(35) @ 945: uvm_test_top.env.active_agent.active_monitor [uvm_test_top.env.active_agent.active_monitor] apb_seeq_item -> psel: 1 | penable : 1 | pwrite : 0 | paddr : 180 | pwdata : 43115500 | pstrb : 1000 | prdata : 0 | pready : 0 | pslverr : 0
# passive_monitor ...sequence...
# UVM_INFO apb_passive_monitor.sv(31) @ 955: uvm_test_top.env.passive_agent.passive_monitor [uvm_test_top.env.passive_agent.passive_monitor] apb_seeq_item -> psel: 0 | penable : 0 | pwrite : 0 | paddr : 0 | pwdata : 0 | pstrb : 0000 | prdata : 0 | pready : 1 | pslverr : 0
# UVM_INFO apb_scoreboard.sv(55) @ 955: uvm_test_top.env.scoreboard [uvm_test_top.env.scoreboard] MATCH HAS OCCURED...
# UVM_INFO apb_scoreboard.sv(56) @ 955: uvm_test_top.env.scoreboard [uvm_test_top.env.scoreboard] @addres -> mem : 0  |  rdata : 0
# active_monitor ...sequence...
# UVM_INFO apb_active_monitor.sv(35) @ 965: uvm_test_top.env.active_agent.active_monitor [uvm_test_top.env.active_agent.active_monitor] apb_seeq_item -> psel: 1 | penable : 0 | pwrite : 1 | paddr : 1024905514 | pwdata : 3973311032 | pstrb : 0110 | prdata : 0 | pready : 0 | pslverr : 0
# active_monitor ...sequence...
# UVM_INFO apb_active_monitor.sv(35) @ 975: uvm_test_top.env.active_agent.active_monitor [uvm_test_top.env.active_agent.active_monitor] apb_seeq_item -> psel: 1 | penable : 0 | pwrite : 0 | paddr : 210 | pwdata : 2848988851 | pstrb : 1100 | prdata : 0 | pready : 0 | pslverr : 0
# active_monitor ...sequence...
# UVM_INFO apb_active_monitor.sv(35) @ 985: uvm_test_top.env.active_agent.active_monitor [uvm_test_top.env.active_agent.active_monitor] apb_seeq_item -> psel: 1 | penable : 1 | pwrite : 0 | paddr : 210 | pwdata : 2417060329 | pstrb : 0101 | prdata : 0 | pready : 0 | pslverr : 0
# passive_monitor ...sequence...
# UVM_INFO apb_passive_monitor.sv(31) @ 995: uvm_test_top.env.passive_agent.passive_monitor [uvm_test_top.env.passive_agent.passive_monitor] apb_seeq_item -> psel: 0 | penable : 0 | pwrite : 0 | paddr : 0 | pwdata : 0 | pstrb : 0000 | prdata : 0 | pready : 1 | pslverr : 0
# UVM_INFO apb_scoreboard.sv(55) @ 995: uvm_test_top.env.scoreboard [uvm_test_top.env.scoreboard] MATCH HAS OCCURED...
# UVM_INFO apb_scoreboard.sv(56) @ 995: uvm_test_top.env.scoreboard [uvm_test_top.env.scoreboard] @addres -> mem : 0  |  rdata : 0
# active_monitor ...sequence...
# UVM_INFO apb_active_monitor.sv(35) @ 1005: uvm_test_top.env.active_agent.active_monitor [uvm_test_top.env.active_agent.active_monitor] apb_seeq_item -> psel: 1 | penable : 0 | pwrite : 1 | paddr : 3125227920 | pwdata : 3237092958 | pstrb : 1101 | prdata : 0 | pready : 0 | pslverr : 0
# active_monitor ...sequence...
# UVM_INFO apb_active_monitor.sv(35) @ 1015: uvm_test_top.env.active_agent.active_monitor [uvm_test_top.env.active_agent.active_monitor] apb_seeq_item -> psel: 1 | penable : 0 | pwrite : 0 | paddr : 240 | pwdata : 3554556023 | pstrb : 1110 | prdata : 0 | pready : 0 | pslverr : 0
# active_monitor ...sequence...
# UVM_INFO apb_active_monitor.sv(35) @ 1025: uvm_test_top.env.active_agent.active_monitor [uvm_test_top.env.active_agent.active_monitor] apb_seeq_item -> psel: 1 | penable : 1 | pwrite : 0 | paddr : 240 | pwdata : 3895846666 | pstrb : 1011 | prdata : 0 | pready : 0 | pslverr : 0
# passive_monitor ...sequence...
# UVM_INFO apb_passive_monitor.sv(31) @ 1035: uvm_test_top.env.passive_agent.passive_monitor [uvm_test_top.env.passive_agent.passive_monitor] apb_seeq_item -> psel: 0 | penable : 0 | pwrite : 0 | paddr : 0 | pwdata : 0 | pstrb : 0000 | prdata : 0 | pready : 1 | pslverr : 0
# UVM_INFO apb_scoreboard.sv(55) @ 1035: uvm_test_top.env.scoreboard [uvm_test_top.env.scoreboard] MATCH HAS OCCURED...
# UVM_INFO apb_scoreboard.sv(56) @ 1035: uvm_test_top.env.scoreboard [uvm_test_top.env.scoreboard] @addres -> mem : 0  |  rdata : 0
# active_monitor ...sequence...
# UVM_INFO apb_active_monitor.sv(35) @ 1045: uvm_test_top.env.active_agent.active_monitor [uvm_test_top.env.active_agent.active_monitor] apb_seeq_item -> psel: 1 | penable : 0 | pwrite : 0 | paddr : 158768484 | pwdata : 4072750942 | pstrb : 0001 | prdata : 0 | pready : 0 | pslverr : 0
# active_monitor ...sequence...
# UVM_INFO apb_active_monitor.sv(35) @ 1055: uvm_test_top.env.active_agent.active_monitor [uvm_test_top.env.active_agent.active_monitor] apb_seeq_item -> psel: 1 | penable : 0 | pwrite : 0 | paddr : 270 | pwdata : 2438125783 | pstrb : 1110 | prdata : 0 | pready : 0 | pslverr : 0
# active_monitor ...sequence...
# UVM_INFO apb_active_monitor.sv(35) @ 1065: uvm_test_top.env.active_agent.active_monitor [uvm_test_top.env.active_agent.active_monitor] apb_seeq_item -> psel: 1 | penable : 1 | pwrite : 0 | paddr : 270 | pwdata : 1648919611 | pstrb : 1110 | prdata : 0 | pready : 0 | pslverr : 0
# passive_monitor ...sequence...
# UVM_INFO apb_passive_monitor.sv(31) @ 1075: uvm_test_top.env.passive_agent.passive_monitor [uvm_test_top.env.passive_agent.passive_monitor] apb_seeq_item -> psel: 0 | penable : 0 | pwrite : 0 | paddr : 0 | pwdata : 0 | pstrb : 0000 | prdata : 4294967295 | pready : 1 | pslverr : 1
# UVM_INFO apb_scoreboard.sv(68) @ 1075: uvm_test_top.env.scoreboard [uvm_test_top.env.scoreboard] MATCH HAS OCCURED WITH PSLVERR...
# UVM_INFO apb_scoreboard.sv(69) @ 1075: uvm_test_top.env.scoreboard [uvm_test_top.env.scoreboard] @slverr -> exp_slv_err : 1 | act_slv_err : 1
# active_monitor ...sequence...
# UVM_INFO apb_active_monitor.sv(35) @ 1085: uvm_test_top.env.active_agent.active_monitor [uvm_test_top.env.active_agent.active_monitor] apb_seeq_item -> psel: 1 | penable : 0 | pwrite : 0 | paddr : 456174819 | pwdata : 2888700214 | pstrb : 0011 | prdata : 0 | pready : 0 | pslverr : 1
# active_monitor ...sequence...
# UVM_INFO apb_active_monitor.sv(35) @ 1095: uvm_test_top.env.active_agent.active_monitor [uvm_test_top.env.active_agent.active_monitor] apb_seeq_item -> psel: 0 | penable : 0 | pwrite : 1 | paddr : 56 | pwdata : 5 | pstrb : 1111 | prdata : 0 | pready : 0 | pslverr : 1
# active_monitor ...sequence...
# UVM_INFO apb_active_monitor.sv(35) @ 1105: uvm_test_top.env.active_agent.active_monitor [uvm_test_top.env.active_agent.active_monitor] apb_seeq_item -> psel: 1 | penable : 0 | pwrite : 1 | paddr : 56 | pwdata : 5 | pstrb : 1111 | prdata : 0 | pready : 0 | pslverr : 1
# active_monitor ...sequence...
# UVM_INFO apb_active_monitor.sv(35) @ 1115: uvm_test_top.env.active_agent.active_monitor [uvm_test_top.env.active_agent.active_monitor] apb_seeq_item -> psel: 1 | penable : 1 | pwrite : 1 | paddr : 56 | pwdata : 5 | pstrb : 1111 | prdata : 0 | pready : 0 | pslverr : 1
# passive_monitor ...sequence...
# UVM_INFO apb_passive_monitor.sv(31) @ 1125: uvm_test_top.env.passive_agent.passive_monitor [uvm_test_top.env.passive_agent.passive_monitor] apb_seeq_item -> psel: 0 | penable : 0 | pwrite : 0 | paddr : 0 | pwdata : 0 | pstrb : 0000 | prdata : 0 | pready : 1 | pslverr : 0
# UVM_INFO apb_scoreboard.sv(47) @ 1125: uvm_test_top.env.scoreboard [apb_slv_scoreboard] mem : 5 10 15 20 25 30 35 40 45 50 0 0 0 0 0 0 0 0 0 0 0 0 0 0 0 0 0 0 0 0 0 0 0 0 0 0 0 0 0 0 0 0 0 0 0 0 0 0 0 0 0 0 0 0 0 0 5 0 0 0 0 0 0 0 0 0 0 0 0 0 0 0 0 0 0 0 0 0 0 0 0 0 0 0 0 0 0 0 0 0 0 0 0 0 0 0 0 0 0 0 0 0 0 0 0 0 0 0 0 0 0 0 0 0 0 0 0 0 0 0 0 0 0 0 0 0 0 0 0 0 0 0 0 0 0 0 0 0 0 0 0 0 0 0 0 0 0 0 0 0 0 0 0 0 0 0 0 0 0 0 0 0 0 0 0 0 0 0 0 0 0 0 0 0 0 0 0 0 0 0 0 0 0 0 0 0 0 0 0 0 0 0 0 0 0 0 0 0 0 0 0 0 0 0 0 0 0 0 0 0 0 0 0 0 0 0 0 0 0 0 0 0 0 0 0 0 0 0 0 0 0 0 0 0 0 0 0 0 0 0 0 0 0 0 0 0 0 0 0 0 0 0 0 0 0 0
# exp_pslverr : 0
# active_monitor ...sequence...
# UVM_INFO apb_active_monitor.sv(35) @ 1135: uvm_test_top.env.active_agent.active_monitor [uvm_test_top.env.active_agent.active_monitor] apb_seeq_item -> psel: 0 | penable : 0 | pwrite : 1 | paddr : 3012876216 | pwdata : 3153937487 | pstrb : 1010 | prdata : 0 | pready : 0 | pslverr : 0
# active_monitor ...sequence...
# UVM_INFO apb_active_monitor.sv(35) @ 1145: uvm_test_top.env.active_agent.active_monitor [uvm_test_top.env.active_agent.active_monitor] apb_seeq_item -> psel: 1 | penable : 0 | pwrite : 1 | paddr : 58 | pwdata : 10 | pstrb : 1111 | prdata : 0 | pready : 0 | pslverr : 0
# active_monitor ...sequence...
# UVM_INFO apb_active_monitor.sv(35) @ 1155: uvm_test_top.env.active_agent.active_monitor [uvm_test_top.env.active_agent.active_monitor] apb_seeq_item -> psel: 1 | penable : 1 | pwrite : 1 | paddr : 58 | pwdata : 10 | pstrb : 1111 | prdata : 0 | pready : 0 | pslverr : 0
# passive_monitor ...sequence...
# UVM_INFO apb_passive_monitor.sv(31) @ 1165: uvm_test_top.env.passive_agent.passive_monitor [uvm_test_top.env.passive_agent.passive_monitor] apb_seeq_item -> psel: 0 | penable : 0 | pwrite : 0 | paddr : 0 | pwdata : 0 | pstrb : 0000 | prdata : 0 | pready : 1 | pslverr : 0
# UVM_INFO apb_scoreboard.sv(47) @ 1165: uvm_test_top.env.scoreboard [apb_slv_scoreboard] mem : 5 10 15 20 25 30 35 40 45 50 0 0 0 0 0 0 0 0 0 0 0 0 0 0 0 0 0 0 0 0 0 0 0 0 0 0 0 0 0 0 0 0 0 0 0 0 0 0 0 0 0 0 0 0 0 0 5 0 10 0 0 0 0 0 0 0 0 0 0 0 0 0 0 0 0 0 0 0 0 0 0 0 0 0 0 0 0 0 0 0 0 0 0 0 0 0 0 0 0 0 0 0 0 0 0 0 0 0 0 0 0 0 0 0 0 0 0 0 0 0 0 0 0 0 0 0 0 0 0 0 0 0 0 0 0 0 0 0 0 0 0 0 0 0 0 0 0 0 0 0 0 0 0 0 0 0 0 0 0 0 0 0 0 0 0 0 0 0 0 0 0 0 0 0 0 0 0 0 0 0 0 0 0 0 0 0 0 0 0 0 0 0 0 0 0 0 0 0 0 0 0 0 0 0 0 0 0 0 0 0 0 0 0 0 0 0 0 0 0 0 0 0 0 0 0 0 0 0 0 0 0 0 0 0 0 0 0 0 0 0 0 0 0 0 0 0 0 0 0 0 0 0 0 0 0 0
# exp_pslverr : 0
# active_monitor ...sequence...
# UVM_INFO apb_active_monitor.sv(35) @ 1175: uvm_test_top.env.active_agent.active_monitor [uvm_test_top.env.active_agent.active_monitor] apb_seeq_item -> psel: 0 | penable : 0 | pwrite : 1 | paddr : 4289346915 | pwdata : 1131268264 | pstrb : 1001 | prdata : 0 | pready : 0 | pslverr : 0
# active_monitor ...sequence...
# UVM_INFO apb_active_monitor.sv(35) @ 1185: uvm_test_top.env.active_agent.active_monitor [uvm_test_top.env.active_agent.active_monitor] apb_seeq_item -> psel: 1 | penable : 0 | pwrite : 1 | paddr : 60 | pwdata : 15 | pstrb : 1111 | prdata : 0 | pready : 0 | pslverr : 0
# active_monitor ...sequence...
# UVM_INFO apb_active_monitor.sv(35) @ 1195: uvm_test_top.env.active_agent.active_monitor [uvm_test_top.env.active_agent.active_monitor] apb_seeq_item -> psel: 1 | penable : 1 | pwrite : 1 | paddr : 60 | pwdata : 15 | pstrb : 1111 | prdata : 0 | pready : 0 | pslverr : 0
# passive_monitor ...sequence...
# UVM_INFO apb_passive_monitor.sv(31) @ 1205: uvm_test_top.env.passive_agent.passive_monitor [uvm_test_top.env.passive_agent.passive_monitor] apb_seeq_item -> psel: 0 | penable : 0 | pwrite : 0 | paddr : 0 | pwdata : 0 | pstrb : 0000 | prdata : 0 | pready : 1 | pslverr : 0
# UVM_INFO apb_scoreboard.sv(47) @ 1205: uvm_test_top.env.scoreboard [apb_slv_scoreboard] mem : 5 10 15 20 25 30 35 40 45 50 0 0 0 0 0 0 0 0 0 0 0 0 0 0 0 0 0 0 0 0 0 0 0 0 0 0 0 0 0 0 0 0 0 0 0 0 0 0 0 0 0 0 0 0 0 0 5 0 10 0 15 0 0 0 0 0 0 0 0 0 0 0 0 0 0 0 0 0 0 0 0 0 0 0 0 0 0 0 0 0 0 0 0 0 0 0 0 0 0 0 0 0 0 0 0 0 0 0 0 0 0 0 0 0 0 0 0 0 0 0 0 0 0 0 0 0 0 0 0 0 0 0 0 0 0 0 0 0 0 0 0 0 0 0 0 0 0 0 0 0 0 0 0 0 0 0 0 0 0 0 0 0 0 0 0 0 0 0 0 0 0 0 0 0 0 0 0 0 0 0 0 0 0 0 0 0 0 0 0 0 0 0 0 0 0 0 0 0 0 0 0 0 0 0 0 0 0 0 0 0 0 0 0 0 0 0 0 0 0 0 0 0 0 0 0 0 0 0 0 0 0 0 0 0 0 0 0 0 0 0 0 0 0 0 0 0 0 0 0 0 0 0 0 0 0 0
# exp_pslverr : 0
# active_monitor ...sequence...
# UVM_INFO apb_active_monitor.sv(35) @ 1215: uvm_test_top.env.active_agent.active_monitor [uvm_test_top.env.active_agent.active_monitor] apb_seeq_item -> psel: 0 | penable : 0 | pwrite : 1 | paddr : 3369720103 | pwdata : 3887237697 | pstrb : 0111 | prdata : 0 | pready : 0 | pslverr : 0
# active_monitor ...sequence...
# UVM_INFO apb_active_monitor.sv(35) @ 1225: uvm_test_top.env.active_agent.active_monitor [uvm_test_top.env.active_agent.active_monitor] apb_seeq_item -> psel: 1 | penable : 0 | pwrite : 1 | paddr : 62 | pwdata : 20 | pstrb : 1111 | prdata : 0 | pready : 0 | pslverr : 0
# active_monitor ...sequence...
# UVM_INFO apb_active_monitor.sv(35) @ 1235: uvm_test_top.env.active_agent.active_monitor [uvm_test_top.env.active_agent.active_monitor] apb_seeq_item -> psel: 1 | penable : 1 | pwrite : 1 | paddr : 62 | pwdata : 20 | pstrb : 1111 | prdata : 0 | pready : 0 | pslverr : 0
# passive_monitor ...sequence...
# UVM_INFO apb_passive_monitor.sv(31) @ 1245: uvm_test_top.env.passive_agent.passive_monitor [uvm_test_top.env.passive_agent.passive_monitor] apb_seeq_item -> psel: 0 | penable : 0 | pwrite : 0 | paddr : 0 | pwdata : 0 | pstrb : 0000 | prdata : 0 | pready : 1 | pslverr : 0
# UVM_INFO apb_scoreboard.sv(47) @ 1245: uvm_test_top.env.scoreboard [apb_slv_scoreboard] mem : 5 10 15 20 25 30 35 40 45 50 0 0 0 0 0 0 0 0 0 0 0 0 0 0 0 0 0 0 0 0 0 0 0 0 0 0 0 0 0 0 0 0 0 0 0 0 0 0 0 0 0 0 0 0 0 0 5 0 10 0 15 0 20 0 0 0 0 0 0 0 0 0 0 0 0 0 0 0 0 0 0 0 0 0 0 0 0 0 0 0 0 0 0 0 0 0 0 0 0 0 0 0 0 0 0 0 0 0 0 0 0 0 0 0 0 0 0 0 0 0 0 0 0 0 0 0 0 0 0 0 0 0 0 0 0 0 0 0 0 0 0 0 0 0 0 0 0 0 0 0 0 0 0 0 0 0 0 0 0 0 0 0 0 0 0 0 0 0 0 0 0 0 0 0 0 0 0 0 0 0 0 0 0 0 0 0 0 0 0 0 0 0 0 0 0 0 0 0 0 0 0 0 0 0 0 0 0 0 0 0 0 0 0 0 0 0 0 0 0 0 0 0 0 0 0 0 0 0 0 0 0 0 0 0 0 0 0 0 0 0 0 0 0 0 0 0 0 0 0 0 0 0 0 0 0 0
# exp_pslverr : 0
# active_monitor ...sequence...
# UVM_INFO apb_active_monitor.sv(35) @ 1255: uvm_test_top.env.active_agent.active_monitor [uvm_test_top.env.active_agent.active_monitor] apb_seeq_item -> psel: 0 | penable : 0 | pwrite : 0 | paddr : 3625249818 | pwdata : 624299729 | pstrb : 1100 | prdata : 0 | pready : 0 | pslverr : 0
# active_monitor ...sequence...
# UVM_INFO apb_active_monitor.sv(35) @ 1265: uvm_test_top.env.active_agent.active_monitor [uvm_test_top.env.active_agent.active_monitor] apb_seeq_item -> psel: 1 | penable : 0 | pwrite : 1 | paddr : 64 | pwdata : 25 | pstrb : 1111 | prdata : 0 | pready : 0 | pslverr : 0
# active_monitor ...sequence...
# UVM_INFO apb_active_monitor.sv(35) @ 1275: uvm_test_top.env.active_agent.active_monitor [uvm_test_top.env.active_agent.active_monitor] apb_seeq_item -> psel: 1 | penable : 1 | pwrite : 1 | paddr : 64 | pwdata : 25 | pstrb : 1111 | prdata : 0 | pready : 0 | pslverr : 0
# passive_monitor ...sequence...
# UVM_INFO apb_passive_monitor.sv(31) @ 1285: uvm_test_top.env.passive_agent.passive_monitor [uvm_test_top.env.passive_agent.passive_monitor] apb_seeq_item -> psel: 0 | penable : 0 | pwrite : 0 | paddr : 0 | pwdata : 0 | pstrb : 0000 | prdata : 0 | pready : 1 | pslverr : 0
# UVM_INFO apb_scoreboard.sv(47) @ 1285: uvm_test_top.env.scoreboard [apb_slv_scoreboard] mem : 5 10 15 20 25 30 35 40 45 50 0 0 0 0 0 0 0 0 0 0 0 0 0 0 0 0 0 0 0 0 0 0 0 0 0 0 0 0 0 0 0 0 0 0 0 0 0 0 0 0 0 0 0 0 0 0 5 0 10 0 15 0 20 0 25 0 0 0 0 0 0 0 0 0 0 0 0 0 0 0 0 0 0 0 0 0 0 0 0 0 0 0 0 0 0 0 0 0 0 0 0 0 0 0 0 0 0 0 0 0 0 0 0 0 0 0 0 0 0 0 0 0 0 0 0 0 0 0 0 0 0 0 0 0 0 0 0 0 0 0 0 0 0 0 0 0 0 0 0 0 0 0 0 0 0 0 0 0 0 0 0 0 0 0 0 0 0 0 0 0 0 0 0 0 0 0 0 0 0 0 0 0 0 0 0 0 0 0 0 0 0 0 0 0 0 0 0 0 0 0 0 0 0 0 0 0 0 0 0 0 0 0 0 0 0 0 0 0 0 0 0 0 0 0 0 0 0 0 0 0 0 0 0 0 0 0 0 0 0 0 0 0 0 0 0 0 0 0 0 0 0 0 0 0 0 0
# exp_pslverr : 0
# active_monitor ...sequence...
# UVM_INFO apb_active_monitor.sv(35) @ 1295: uvm_test_top.env.active_agent.active_monitor [uvm_test_top.env.active_agent.active_monitor] apb_seeq_item -> psel: 0 | penable : 0 | pwrite : 0 | paddr : 1973153602 | pwdata : 291784964 | pstrb : 0011 | prdata : 0 | pready : 0 | pslverr : 0
# active_monitor ...sequence...
# UVM_INFO apb_active_monitor.sv(35) @ 1305: uvm_test_top.env.active_agent.active_monitor [uvm_test_top.env.active_agent.active_monitor] apb_seeq_item -> psel: 1 | penable : 0 | pwrite : 1 | paddr : 66 | pwdata : 30 | pstrb : 1111 | prdata : 0 | pready : 0 | pslverr : 0
# active_monitor ...sequence...
# UVM_INFO apb_active_monitor.sv(35) @ 1315: uvm_test_top.env.active_agent.active_monitor [uvm_test_top.env.active_agent.active_monitor] apb_seeq_item -> psel: 1 | penable : 1 | pwrite : 1 | paddr : 66 | pwdata : 30 | pstrb : 1111 | prdata : 0 | pready : 0 | pslverr : 0
# passive_monitor ...sequence...
# UVM_INFO apb_passive_monitor.sv(31) @ 1325: uvm_test_top.env.passive_agent.passive_monitor [uvm_test_top.env.passive_agent.passive_monitor] apb_seeq_item -> psel: 0 | penable : 0 | pwrite : 0 | paddr : 0 | pwdata : 0 | pstrb : 0000 | prdata : 0 | pready : 1 | pslverr : 0
# UVM_INFO apb_scoreboard.sv(47) @ 1325: uvm_test_top.env.scoreboard [apb_slv_scoreboard] mem : 5 10 15 20 25 30 35 40 45 50 0 0 0 0 0 0 0 0 0 0 0 0 0 0 0 0 0 0 0 0 0 0 0 0 0 0 0 0 0 0 0 0 0 0 0 0 0 0 0 0 0 0 0 0 0 0 5 0 10 0 15 0 20 0 25 0 30 0 0 0 0 0 0 0 0 0 0 0 0 0 0 0 0 0 0 0 0 0 0 0 0 0 0 0 0 0 0 0 0 0 0 0 0 0 0 0 0 0 0 0 0 0 0 0 0 0 0 0 0 0 0 0 0 0 0 0 0 0 0 0 0 0 0 0 0 0 0 0 0 0 0 0 0 0 0 0 0 0 0 0 0 0 0 0 0 0 0 0 0 0 0 0 0 0 0 0 0 0 0 0 0 0 0 0 0 0 0 0 0 0 0 0 0 0 0 0 0 0 0 0 0 0 0 0 0 0 0 0 0 0 0 0 0 0 0 0 0 0 0 0 0 0 0 0 0 0 0 0 0 0 0 0 0 0 0 0 0 0 0 0 0 0 0 0 0 0 0 0 0 0 0 0 0 0 0 0 0 0 0 0 0 0 0 0 0 0
# exp_pslverr : 0
# active_monitor ...sequence...
# UVM_INFO apb_active_monitor.sv(35) @ 1335: uvm_test_top.env.active_agent.active_monitor [uvm_test_top.env.active_agent.active_monitor] apb_seeq_item -> psel: 0 | penable : 0 | pwrite : 1 | paddr : 667597680 | pwdata : 3864475528 | pstrb : 0010 | prdata : 0 | pready : 0 | pslverr : 0
# active_monitor ...sequence...
# UVM_INFO apb_active_monitor.sv(35) @ 1345: uvm_test_top.env.active_agent.active_monitor [uvm_test_top.env.active_agent.active_monitor] apb_seeq_item -> psel: 1 | penable : 0 | pwrite : 1 | paddr : 68 | pwdata : 35 | pstrb : 1111 | prdata : 0 | pready : 0 | pslverr : 0
# active_monitor ...sequence...
# UVM_INFO apb_active_monitor.sv(35) @ 1355: uvm_test_top.env.active_agent.active_monitor [uvm_test_top.env.active_agent.active_monitor] apb_seeq_item -> psel: 1 | penable : 1 | pwrite : 1 | paddr : 68 | pwdata : 35 | pstrb : 1111 | prdata : 0 | pready : 0 | pslverr : 0
# passive_monitor ...sequence...
# UVM_INFO apb_passive_monitor.sv(31) @ 1365: uvm_test_top.env.passive_agent.passive_monitor [uvm_test_top.env.passive_agent.passive_monitor] apb_seeq_item -> psel: 0 | penable : 0 | pwrite : 0 | paddr : 0 | pwdata : 0 | pstrb : 0000 | prdata : 0 | pready : 1 | pslverr : 0
# UVM_INFO apb_scoreboard.sv(47) @ 1365: uvm_test_top.env.scoreboard [apb_slv_scoreboard] mem : 5 10 15 20 25 30 35 40 45 50 0 0 0 0 0 0 0 0 0 0 0 0 0 0 0 0 0 0 0 0 0 0 0 0 0 0 0 0 0 0 0 0 0 0 0 0 0 0 0 0 0 0 0 0 0 0 5 0 10 0 15 0 20 0 25 0 30 0 35 0 0 0 0 0 0 0 0 0 0 0 0 0 0 0 0 0 0 0 0 0 0 0 0 0 0 0 0 0 0 0 0 0 0 0 0 0 0 0 0 0 0 0 0 0 0 0 0 0 0 0 0 0 0 0 0 0 0 0 0 0 0 0 0 0 0 0 0 0 0 0 0 0 0 0 0 0 0 0 0 0 0 0 0 0 0 0 0 0 0 0 0 0 0 0 0 0 0 0 0 0 0 0 0 0 0 0 0 0 0 0 0 0 0 0 0 0 0 0 0 0 0 0 0 0 0 0 0 0 0 0 0 0 0 0 0 0 0 0 0 0 0 0 0 0 0 0 0 0 0 0 0 0 0 0 0 0 0 0 0 0 0 0 0 0 0 0 0 0 0 0 0 0 0 0 0 0 0 0 0 0 0 0 0 0 0 0
# exp_pslverr : 0
# active_monitor ...sequence...
# UVM_INFO apb_active_monitor.sv(35) @ 1375: uvm_test_top.env.active_agent.active_monitor [uvm_test_top.env.active_agent.active_monitor] apb_seeq_item -> psel: 0 | penable : 0 | pwrite : 0 | paddr : 1336185037 | pwdata : 1676845293 | pstrb : 0011 | prdata : 0 | pready : 0 | pslverr : 0
# active_monitor ...sequence...
# UVM_INFO apb_active_monitor.sv(35) @ 1385: uvm_test_top.env.active_agent.active_monitor [uvm_test_top.env.active_agent.active_monitor] apb_seeq_item -> psel: 1 | penable : 0 | pwrite : 1 | paddr : 70 | pwdata : 40 | pstrb : 1111 | prdata : 0 | pready : 0 | pslverr : 0
# active_monitor ...sequence...
# UVM_INFO apb_active_monitor.sv(35) @ 1395: uvm_test_top.env.active_agent.active_monitor [uvm_test_top.env.active_agent.active_monitor] apb_seeq_item -> psel: 1 | penable : 1 | pwrite : 1 | paddr : 70 | pwdata : 40 | pstrb : 1111 | prdata : 0 | pready : 0 | pslverr : 0
# passive_monitor ...sequence...
# UVM_INFO apb_passive_monitor.sv(31) @ 1405: uvm_test_top.env.passive_agent.passive_monitor [uvm_test_top.env.passive_agent.passive_monitor] apb_seeq_item -> psel: 0 | penable : 0 | pwrite : 0 | paddr : 0 | pwdata : 0 | pstrb : 0000 | prdata : 0 | pready : 1 | pslverr : 0
# UVM_INFO apb_scoreboard.sv(47) @ 1405: uvm_test_top.env.scoreboard [apb_slv_scoreboard] mem : 5 10 15 20 25 30 35 40 45 50 0 0 0 0 0 0 0 0 0 0 0 0 0 0 0 0 0 0 0 0 0 0 0 0 0 0 0 0 0 0 0 0 0 0 0 0 0 0 0 0 0 0 0 0 0 0 5 0 10 0 15 0 20 0 25 0 30 0 35 0 40 0 0 0 0 0 0 0 0 0 0 0 0 0 0 0 0 0 0 0 0 0 0 0 0 0 0 0 0 0 0 0 0 0 0 0 0 0 0 0 0 0 0 0 0 0 0 0 0 0 0 0 0 0 0 0 0 0 0 0 0 0 0 0 0 0 0 0 0 0 0 0 0 0 0 0 0 0 0 0 0 0 0 0 0 0 0 0 0 0 0 0 0 0 0 0 0 0 0 0 0 0 0 0 0 0 0 0 0 0 0 0 0 0 0 0 0 0 0 0 0 0 0 0 0 0 0 0 0 0 0 0 0 0 0 0 0 0 0 0 0 0 0 0 0 0 0 0 0 0 0 0 0 0 0 0 0 0 0 0 0 0 0 0 0 0 0 0 0 0 0 0 0 0 0 0 0 0 0 0 0 0 0 0 0 0
# exp_pslverr : 0
# active_monitor ...sequence...
# UVM_INFO apb_active_monitor.sv(35) @ 1415: uvm_test_top.env.active_agent.active_monitor [uvm_test_top.env.active_agent.active_monitor] apb_seeq_item -> psel: 0 | penable : 0 | pwrite : 0 | paddr : 1236214825 | pwdata : 3378572689 | pstrb : 1000 | prdata : 0 | pready : 0 | pslverr : 0
# active_monitor ...sequence...
# UVM_INFO apb_active_monitor.sv(35) @ 1425: uvm_test_top.env.active_agent.active_monitor [uvm_test_top.env.active_agent.active_monitor] apb_seeq_item -> psel: 1 | penable : 0 | pwrite : 1 | paddr : 72 | pwdata : 45 | pstrb : 1111 | prdata : 0 | pready : 0 | pslverr : 0
# active_monitor ...sequence...
# UVM_INFO apb_active_monitor.sv(35) @ 1435: uvm_test_top.env.active_agent.active_monitor [uvm_test_top.env.active_agent.active_monitor] apb_seeq_item -> psel: 1 | penable : 1 | pwrite : 1 | paddr : 72 | pwdata : 45 | pstrb : 1111 | prdata : 0 | pready : 0 | pslverr : 0
# passive_monitor ...sequence...
# UVM_INFO apb_passive_monitor.sv(31) @ 1445: uvm_test_top.env.passive_agent.passive_monitor [uvm_test_top.env.passive_agent.passive_monitor] apb_seeq_item -> psel: 0 | penable : 0 | pwrite : 0 | paddr : 0 | pwdata : 0 | pstrb : 0000 | prdata : 0 | pready : 1 | pslverr : 0
# UVM_INFO apb_scoreboard.sv(47) @ 1445: uvm_test_top.env.scoreboard [apb_slv_scoreboard] mem : 5 10 15 20 25 30 35 40 45 50 0 0 0 0 0 0 0 0 0 0 0 0 0 0 0 0 0 0 0 0 0 0 0 0 0 0 0 0 0 0 0 0 0 0 0 0 0 0 0 0 0 0 0 0 0 0 5 0 10 0 15 0 20 0 25 0 30 0 35 0 40 0 45 0 0 0 0 0 0 0 0 0 0 0 0 0 0 0 0 0 0 0 0 0 0 0 0 0 0 0 0 0 0 0 0 0 0 0 0 0 0 0 0 0 0 0 0 0 0 0 0 0 0 0 0 0 0 0 0 0 0 0 0 0 0 0 0 0 0 0 0 0 0 0 0 0 0 0 0 0 0 0 0 0 0 0 0 0 0 0 0 0 0 0 0 0 0 0 0 0 0 0 0 0 0 0 0 0 0 0 0 0 0 0 0 0 0 0 0 0 0 0 0 0 0 0 0 0 0 0 0 0 0 0 0 0 0 0 0 0 0 0 0 0 0 0 0 0 0 0 0 0 0 0 0 0 0 0 0 0 0 0 0 0 0 0 0 0 0 0 0 0 0 0 0 0 0 0 0 0 0 0 0 0 0 0
# exp_pslverr : 0
# active_monitor ...sequence...
# UVM_INFO apb_active_monitor.sv(35) @ 1455: uvm_test_top.env.active_agent.active_monitor [uvm_test_top.env.active_agent.active_monitor] apb_seeq_item -> psel: 0 | penable : 0 | pwrite : 1 | paddr : 3681246629 | pwdata : 3975326242 | pstrb : 1010 | prdata : 0 | pready : 0 | pslverr : 0
# active_monitor ...sequence...
# UVM_INFO apb_active_monitor.sv(35) @ 1465: uvm_test_top.env.active_agent.active_monitor [uvm_test_top.env.active_agent.active_monitor] apb_seeq_item -> psel: 1 | penable : 0 | pwrite : 1 | paddr : 74 | pwdata : 50 | pstrb : 1111 | prdata : 0 | pready : 0 | pslverr : 0
# active_monitor ...sequence...
# UVM_INFO apb_active_monitor.sv(35) @ 1475: uvm_test_top.env.active_agent.active_monitor [uvm_test_top.env.active_agent.active_monitor] apb_seeq_item -> psel: 1 | penable : 1 | pwrite : 1 | paddr : 74 | pwdata : 50 | pstrb : 1111 | prdata : 0 | pready : 0 | pslverr : 0
# passive_monitor ...sequence...
# UVM_INFO apb_passive_monitor.sv(31) @ 1485: uvm_test_top.env.passive_agent.passive_monitor [uvm_test_top.env.passive_agent.passive_monitor] apb_seeq_item -> psel: 0 | penable : 0 | pwrite : 0 | paddr : 0 | pwdata : 0 | pstrb : 0000 | prdata : 0 | pready : 1 | pslverr : 0
# UVM_INFO apb_scoreboard.sv(47) @ 1485: uvm_test_top.env.scoreboard [apb_slv_scoreboard] mem : 5 10 15 20 25 30 35 40 45 50 0 0 0 0 0 0 0 0 0 0 0 0 0 0 0 0 0 0 0 0 0 0 0 0 0 0 0 0 0 0 0 0 0 0 0 0 0 0 0 0 0 0 0 0 0 0 5 0 10 0 15 0 20 0 25 0 30 0 35 0 40 0 45 0 50 0 0 0 0 0 0 0 0 0 0 0 0 0 0 0 0 0 0 0 0 0 0 0 0 0 0 0 0 0 0 0 0 0 0 0 0 0 0 0 0 0 0 0 0 0 0 0 0 0 0 0 0 0 0 0 0 0 0 0 0 0 0 0 0 0 0 0 0 0 0 0 0 0 0 0 0 0 0 0 0 0 0 0 0 0 0 0 0 0 0 0 0 0 0 0 0 0 0 0 0 0 0 0 0 0 0 0 0 0 0 0 0 0 0 0 0 0 0 0 0 0 0 0 0 0 0 0 0 0 0 0 0 0 0 0 0 0 0 0 0 0 0 0 0 0 0 0 0 0 0 0 0 0 0 0 0 0 0 0 0 0 0 0 0 0 0 0 0 0 0 0 0 0 0 0 0 0 0 0 0 0
# exp_pslverr : 0
# active_monitor ...sequence...
# UVM_INFO apb_active_monitor.sv(35) @ 1495: uvm_test_top.env.active_agent.active_monitor [uvm_test_top.env.active_agent.active_monitor] apb_seeq_item -> psel: 0 | penable : 0 | pwrite : 0 | paddr : 2337440619 | pwdata : 292733922 | pstrb : 1010 | prdata : 0 | pready : 0 | pslverr : 0
# active_monitor ...sequence...
# UVM_INFO apb_active_monitor.sv(35) @ 1505: uvm_test_top.env.active_agent.active_monitor [uvm_test_top.env.active_agent.active_monitor] apb_seeq_item -> psel: 1 | penable : 0 | pwrite : 0 | paddr : 76 | pwdata : 3800929040 | pstrb : 0010 | prdata : 0 | pready : 0 | pslverr : 0
# active_monitor ...sequence...
# UVM_INFO apb_active_monitor.sv(35) @ 1515: uvm_test_top.env.active_agent.active_monitor [uvm_test_top.env.active_agent.active_monitor] apb_seeq_item -> psel: 1 | penable : 1 | pwrite : 0 | paddr : 76 | pwdata : 3152838884 | pstrb : 0000 | prdata : 0 | pready : 0 | pslverr : 0
# passive_monitor ...sequence...
# UVM_INFO apb_passive_monitor.sv(31) @ 1525: uvm_test_top.env.passive_agent.passive_monitor [uvm_test_top.env.passive_agent.passive_monitor] apb_seeq_item -> psel: 0 | penable : 0 | pwrite : 0 | paddr : 0 | pwdata : 0 | pstrb : 0000 | prdata : 0 | pready : 1 | pslverr : 0
# UVM_INFO apb_scoreboard.sv(55) @ 1525: uvm_test_top.env.scoreboard [uvm_test_top.env.scoreboard] MATCH HAS OCCURED...
# UVM_INFO apb_scoreboard.sv(56) @ 1525: uvm_test_top.env.scoreboard [uvm_test_top.env.scoreboard] @addres -> mem : 0  |  rdata : 0
# active_monitor ...sequence...
# UVM_INFO apb_active_monitor.sv(35) @ 1535: uvm_test_top.env.active_agent.active_monitor [uvm_test_top.env.active_agent.active_monitor] apb_seeq_item -> psel: 1 | penable : 0 | pwrite : 0 | paddr : 322593012 | pwdata : 105592328 | pstrb : 1011 | prdata : 0 | pready : 0 | pslverr : 0
# active_monitor ...sequence...
# UVM_INFO apb_active_monitor.sv(35) @ 1545: uvm_test_top.env.active_agent.active_monitor [uvm_test_top.env.active_agent.active_monitor] apb_seeq_item -> psel: 1 | penable : 0 | pwrite : 0 | paddr : 74 | pwdata : 4146712681 | pstrb : 0111 | prdata : 0 | pready : 0 | pslverr : 0
# active_monitor ...sequence...
# UVM_INFO apb_active_monitor.sv(35) @ 1555: uvm_test_top.env.active_agent.active_monitor [uvm_test_top.env.active_agent.active_monitor] apb_seeq_item -> psel: 1 | penable : 1 | pwrite : 0 | paddr : 74 | pwdata : 2026393001 | pstrb : 0001 | prdata : 0 | pready : 0 | pslverr : 0
# passive_monitor ...sequence...
# UVM_INFO apb_passive_monitor.sv(31) @ 1565: uvm_test_top.env.passive_agent.passive_monitor [uvm_test_top.env.passive_agent.passive_monitor] apb_seeq_item -> psel: 0 | penable : 0 | pwrite : 0 | paddr : 0 | pwdata : 0 | pstrb : 0000 | prdata : 50 | pready : 1 | pslverr : 0
# UVM_INFO apb_scoreboard.sv(55) @ 1565: uvm_test_top.env.scoreboard [uvm_test_top.env.scoreboard] MATCH HAS OCCURED...
# UVM_INFO apb_scoreboard.sv(56) @ 1565: uvm_test_top.env.scoreboard [uvm_test_top.env.scoreboard] @addres -> mem : 50  |  rdata : 50
# active_monitor ...sequence...
# UVM_INFO apb_active_monitor.sv(35) @ 1575: uvm_test_top.env.active_agent.active_monitor [uvm_test_top.env.active_agent.active_monitor] apb_seeq_item -> psel: 1 | penable : 0 | pwrite : 0 | paddr : 3539266922 | pwdata : 2111946392 | pstrb : 1000 | prdata : 0 | pready : 0 | pslverr : 0
# active_monitor ...sequence...
# UVM_INFO apb_active_monitor.sv(35) @ 1585: uvm_test_top.env.active_agent.active_monitor [uvm_test_top.env.active_agent.active_monitor] apb_seeq_item -> psel: 1 | penable : 0 | pwrite : 0 | paddr : 72 | pwdata : 3437103673 | pstrb : 1011 | prdata : 0 | pready : 0 | pslverr : 0
# active_monitor ...sequence...
# UVM_INFO apb_active_monitor.sv(35) @ 1595: uvm_test_top.env.active_agent.active_monitor [uvm_test_top.env.active_agent.active_monitor] apb_seeq_item -> psel: 1 | penable : 1 | pwrite : 0 | paddr : 72 | pwdata : 2179451040 | pstrb : 0000 | prdata : 0 | pready : 0 | pslverr : 0
# passive_monitor ...sequence...
# UVM_INFO apb_passive_monitor.sv(31) @ 1605: uvm_test_top.env.passive_agent.passive_monitor [uvm_test_top.env.passive_agent.passive_monitor] apb_seeq_item -> psel: 0 | penable : 0 | pwrite : 0 | paddr : 0 | pwdata : 0 | pstrb : 0000 | prdata : 45 | pready : 1 | pslverr : 0
# UVM_INFO apb_scoreboard.sv(55) @ 1605: uvm_test_top.env.scoreboard [uvm_test_top.env.scoreboard] MATCH HAS OCCURED...
# UVM_INFO apb_scoreboard.sv(56) @ 1605: uvm_test_top.env.scoreboard [uvm_test_top.env.scoreboard] @addres -> mem : 45  |  rdata : 45
# active_monitor ...sequence...
# UVM_INFO apb_active_monitor.sv(35) @ 1615: uvm_test_top.env.active_agent.active_monitor [uvm_test_top.env.active_agent.active_monitor] apb_seeq_item -> psel: 1 | penable : 0 | pwrite : 1 | paddr : 2315459915 | pwdata : 1128039890 | pstrb : 0011 | prdata : 0 | pready : 0 | pslverr : 0
# active_monitor ...sequence...
# UVM_INFO apb_active_monitor.sv(35) @ 1625: uvm_test_top.env.active_agent.active_monitor [uvm_test_top.env.active_agent.active_monitor] apb_seeq_item -> psel: 1 | penable : 0 | pwrite : 0 | paddr : 70 | pwdata : 2803020114 | pstrb : 0101 | prdata : 0 | pready : 0 | pslverr : 0
# active_monitor ...sequence...
# UVM_INFO apb_active_monitor.sv(35) @ 1635: uvm_test_top.env.active_agent.active_monitor [uvm_test_top.env.active_agent.active_monitor] apb_seeq_item -> psel: 1 | penable : 1 | pwrite : 0 | paddr : 70 | pwdata : 2136095501 | pstrb : 1111 | prdata : 0 | pready : 0 | pslverr : 0
# passive_monitor ...sequence...
# UVM_INFO apb_passive_monitor.sv(31) @ 1645: uvm_test_top.env.passive_agent.passive_monitor [uvm_test_top.env.passive_agent.passive_monitor] apb_seeq_item -> psel: 0 | penable : 0 | pwrite : 0 | paddr : 0 | pwdata : 0 | pstrb : 0000 | prdata : 40 | pready : 1 | pslverr : 0
# UVM_INFO apb_scoreboard.sv(55) @ 1645: uvm_test_top.env.scoreboard [uvm_test_top.env.scoreboard] MATCH HAS OCCURED...
# UVM_INFO apb_scoreboard.sv(56) @ 1645: uvm_test_top.env.scoreboard [uvm_test_top.env.scoreboard] @addres -> mem : 40  |  rdata : 40
# active_monitor ...sequence...
# UVM_INFO apb_active_monitor.sv(35) @ 1655: uvm_test_top.env.active_agent.active_monitor [uvm_test_top.env.active_agent.active_monitor] apb_seeq_item -> psel: 1 | penable : 0 | pwrite : 1 | paddr : 1160332354 | pwdata : 2294524909 | pstrb : 0111 | prdata : 0 | pready : 0 | pslverr : 0
# active_monitor ...sequence...
# UVM_INFO apb_active_monitor.sv(35) @ 1665: uvm_test_top.env.active_agent.active_monitor [uvm_test_top.env.active_agent.active_monitor] apb_seeq_item -> psel: 1 | penable : 0 | pwrite : 0 | paddr : 68 | pwdata : 3706823763 | pstrb : 0010 | prdata : 0 | pready : 0 | pslverr : 0
# active_monitor ...sequence...
# UVM_INFO apb_active_monitor.sv(35) @ 1675: uvm_test_top.env.active_agent.active_monitor [uvm_test_top.env.active_agent.active_monitor] apb_seeq_item -> psel: 1 | penable : 1 | pwrite : 0 | paddr : 68 | pwdata : 1516287591 | pstrb : 1111 | prdata : 0 | pready : 0 | pslverr : 0
# passive_monitor ...sequence...
# UVM_INFO apb_passive_monitor.sv(31) @ 1685: uvm_test_top.env.passive_agent.passive_monitor [uvm_test_top.env.passive_agent.passive_monitor] apb_seeq_item -> psel: 0 | penable : 0 | pwrite : 0 | paddr : 0 | pwdata : 0 | pstrb : 0000 | prdata : 35 | pready : 1 | pslverr : 0
# UVM_INFO apb_scoreboard.sv(55) @ 1685: uvm_test_top.env.scoreboard [uvm_test_top.env.scoreboard] MATCH HAS OCCURED...
# UVM_INFO apb_scoreboard.sv(56) @ 1685: uvm_test_top.env.scoreboard [uvm_test_top.env.scoreboard] @addres -> mem : 35  |  rdata : 35
# active_monitor ...sequence...
# UVM_INFO apb_active_monitor.sv(35) @ 1695: uvm_test_top.env.active_agent.active_monitor [uvm_test_top.env.active_agent.active_monitor] apb_seeq_item -> psel: 1 | penable : 0 | pwrite : 0 | paddr : 633333247 | pwdata : 4221196076 | pstrb : 0011 | prdata : 0 | pready : 0 | pslverr : 0
# active_monitor ...sequence...
# UVM_INFO apb_active_monitor.sv(35) @ 1705: uvm_test_top.env.active_agent.active_monitor [uvm_test_top.env.active_agent.active_monitor] apb_seeq_item -> psel: 1 | penable : 0 | pwrite : 0 | paddr : 66 | pwdata : 3014022897 | pstrb : 0101 | prdata : 0 | pready : 0 | pslverr : 0
# active_monitor ...sequence...
# UVM_INFO apb_active_monitor.sv(35) @ 1715: uvm_test_top.env.active_agent.active_monitor [uvm_test_top.env.active_agent.active_monitor] apb_seeq_item -> psel: 1 | penable : 1 | pwrite : 0 | paddr : 66 | pwdata : 2840639530 | pstrb : 0111 | prdata : 0 | pready : 0 | pslverr : 0
# passive_monitor ...sequence...
# UVM_INFO apb_passive_monitor.sv(31) @ 1725: uvm_test_top.env.passive_agent.passive_monitor [uvm_test_top.env.passive_agent.passive_monitor] apb_seeq_item -> psel: 0 | penable : 0 | pwrite : 0 | paddr : 0 | pwdata : 0 | pstrb : 0000 | prdata : 30 | pready : 1 | pslverr : 0
# UVM_INFO apb_scoreboard.sv(55) @ 1725: uvm_test_top.env.scoreboard [uvm_test_top.env.scoreboard] MATCH HAS OCCURED...
# UVM_INFO apb_scoreboard.sv(56) @ 1725: uvm_test_top.env.scoreboard [uvm_test_top.env.scoreboard] @addres -> mem : 30  |  rdata : 30
# active_monitor ...sequence...
# UVM_INFO apb_active_monitor.sv(35) @ 1735: uvm_test_top.env.active_agent.active_monitor [uvm_test_top.env.active_agent.active_monitor] apb_seeq_item -> psel: 1 | penable : 0 | pwrite : 1 | paddr : 2432509353 | pwdata : 2020581189 | pstrb : 0100 | prdata : 0 | pready : 0 | pslverr : 0
# active_monitor ...sequence...
# UVM_INFO apb_active_monitor.sv(35) @ 1745: uvm_test_top.env.active_agent.active_monitor [uvm_test_top.env.active_agent.active_monitor] apb_seeq_item -> psel: 1 | penable : 0 | pwrite : 0 | paddr : 64 | pwdata : 2102985187 | pstrb : 0011 | prdata : 0 | pready : 0 | pslverr : 0
# active_monitor ...sequence...
# UVM_INFO apb_active_monitor.sv(35) @ 1755: uvm_test_top.env.active_agent.active_monitor [uvm_test_top.env.active_agent.active_monitor] apb_seeq_item -> psel: 1 | penable : 1 | pwrite : 0 | paddr : 64 | pwdata : 749672475 | pstrb : 0000 | prdata : 0 | pready : 0 | pslverr : 0
# passive_monitor ...sequence...
# UVM_INFO apb_passive_monitor.sv(31) @ 1765: uvm_test_top.env.passive_agent.passive_monitor [uvm_test_top.env.passive_agent.passive_monitor] apb_seeq_item -> psel: 0 | penable : 0 | pwrite : 0 | paddr : 0 | pwdata : 0 | pstrb : 0000 | prdata : 25 | pready : 1 | pslverr : 0
# UVM_INFO apb_scoreboard.sv(55) @ 1765: uvm_test_top.env.scoreboard [uvm_test_top.env.scoreboard] MATCH HAS OCCURED...
# UVM_INFO apb_scoreboard.sv(56) @ 1765: uvm_test_top.env.scoreboard [uvm_test_top.env.scoreboard] @addres -> mem : 25  |  rdata : 25
# active_monitor ...sequence...
# UVM_INFO apb_active_monitor.sv(35) @ 1775: uvm_test_top.env.active_agent.active_monitor [uvm_test_top.env.active_agent.active_monitor] apb_seeq_item -> psel: 1 | penable : 0 | pwrite : 0 | paddr : 2700328221 | pwdata : 3346508213 | pstrb : 1110 | prdata : 0 | pready : 0 | pslverr : 0
# active_monitor ...sequence...
# UVM_INFO apb_active_monitor.sv(35) @ 1785: uvm_test_top.env.active_agent.active_monitor [uvm_test_top.env.active_agent.active_monitor] apb_seeq_item -> psel: 1 | penable : 0 | pwrite : 0 | paddr : 62 | pwdata : 4082741472 | pstrb : 0110 | prdata : 0 | pready : 0 | pslverr : 0
# active_monitor ...sequence...
# UVM_INFO apb_active_monitor.sv(35) @ 1795: uvm_test_top.env.active_agent.active_monitor [uvm_test_top.env.active_agent.active_monitor] apb_seeq_item -> psel: 1 | penable : 1 | pwrite : 0 | paddr : 62 | pwdata : 2013237174 | pstrb : 0111 | prdata : 0 | pready : 0 | pslverr : 0
# passive_monitor ...sequence...
# UVM_INFO apb_passive_monitor.sv(31) @ 1805: uvm_test_top.env.passive_agent.passive_monitor [uvm_test_top.env.passive_agent.passive_monitor] apb_seeq_item -> psel: 0 | penable : 0 | pwrite : 0 | paddr : 0 | pwdata : 0 | pstrb : 0000 | prdata : 20 | pready : 1 | pslverr : 0
# UVM_INFO apb_scoreboard.sv(55) @ 1805: uvm_test_top.env.scoreboard [uvm_test_top.env.scoreboard] MATCH HAS OCCURED...
# UVM_INFO apb_scoreboard.sv(56) @ 1805: uvm_test_top.env.scoreboard [uvm_test_top.env.scoreboard] @addres -> mem : 20  |  rdata : 20
# active_monitor ...sequence...
# UVM_INFO apb_active_monitor.sv(35) @ 1815: uvm_test_top.env.active_agent.active_monitor [uvm_test_top.env.active_agent.active_monitor] apb_seeq_item -> psel: 1 | penable : 0 | pwrite : 0 | paddr : 380485452 | pwdata : 4010937830 | pstrb : 1010 | prdata : 0 | pready : 0 | pslverr : 0
# active_monitor ...sequence...
# UVM_INFO apb_active_monitor.sv(35) @ 1825: uvm_test_top.env.active_agent.active_monitor [uvm_test_top.env.active_agent.active_monitor] apb_seeq_item -> psel: 1 | penable : 0 | pwrite : 0 | paddr : 60 | pwdata : 1832077714 | pstrb : 0001 | prdata : 0 | pready : 0 | pslverr : 0
# active_monitor ...sequence...
# UVM_INFO apb_active_monitor.sv(35) @ 1835: uvm_test_top.env.active_agent.active_monitor [uvm_test_top.env.active_agent.active_monitor] apb_seeq_item -> psel: 1 | penable : 1 | pwrite : 0 | paddr : 60 | pwdata : 1873036997 | pstrb : 0110 | prdata : 0 | pready : 0 | pslverr : 0
# passive_monitor ...sequence...
# UVM_INFO apb_passive_monitor.sv(31) @ 1845: uvm_test_top.env.passive_agent.passive_monitor [uvm_test_top.env.passive_agent.passive_monitor] apb_seeq_item -> psel: 0 | penable : 0 | pwrite : 0 | paddr : 0 | pwdata : 0 | pstrb : 0000 | prdata : 15 | pready : 1 | pslverr : 0
# UVM_INFO apb_scoreboard.sv(55) @ 1845: uvm_test_top.env.scoreboard [uvm_test_top.env.scoreboard] MATCH HAS OCCURED...
# UVM_INFO apb_scoreboard.sv(56) @ 1845: uvm_test_top.env.scoreboard [uvm_test_top.env.scoreboard] @addres -> mem : 15  |  rdata : 15
# active_monitor ...sequence...
# UVM_INFO apb_active_monitor.sv(35) @ 1855: uvm_test_top.env.active_agent.active_monitor [uvm_test_top.env.active_agent.active_monitor] apb_seeq_item -> psel: 1 | penable : 0 | pwrite : 0 | paddr : 209651421 | pwdata : 616071118 | pstrb : 1100 | prdata : 0 | pready : 0 | pslverr : 0
# active_monitor ...sequence...
# UVM_INFO apb_active_monitor.sv(35) @ 1865: uvm_test_top.env.active_agent.active_monitor [uvm_test_top.env.active_agent.active_monitor] apb_seeq_item -> psel: 1 | penable : 0 | pwrite : 0 | paddr : 58 | pwdata : 1580975678 | pstrb : 0101 | prdata : 0 | pready : 0 | pslverr : 0
# active_monitor ...sequence...
# UVM_INFO apb_active_monitor.sv(35) @ 1875: uvm_test_top.env.active_agent.active_monitor [uvm_test_top.env.active_agent.active_monitor] apb_seeq_item -> psel: 1 | penable : 1 | pwrite : 0 | paddr : 58 | pwdata : 4177140535 | pstrb : 1001 | prdata : 0 | pready : 0 | pslverr : 0
# passive_monitor ...sequence...
# UVM_INFO apb_passive_monitor.sv(31) @ 1885: uvm_test_top.env.passive_agent.passive_monitor [uvm_test_top.env.passive_agent.passive_monitor] apb_seeq_item -> psel: 0 | penable : 0 | pwrite : 0 | paddr : 0 | pwdata : 0 | pstrb : 0000 | prdata : 10 | pready : 1 | pslverr : 0
# UVM_INFO apb_scoreboard.sv(55) @ 1885: uvm_test_top.env.scoreboard [uvm_test_top.env.scoreboard] MATCH HAS OCCURED...
# UVM_INFO apb_scoreboard.sv(56) @ 1885: uvm_test_top.env.scoreboard [uvm_test_top.env.scoreboard] @addres -> mem : 10  |  rdata : 10
# active_monitor ...sequence...
# UVM_INFO apb_active_monitor.sv(35) @ 1895: uvm_test_top.env.active_agent.active_monitor [uvm_test_top.env.active_agent.active_monitor] apb_seeq_item -> psel: 1 | penable : 0 | pwrite : 1 | paddr : 3870603516 | pwdata : 1285258234 | pstrb : 1100 | prdata : 0 | pready : 0 | pslverr : 0
# active_monitor ...sequence...
# UVM_INFO apb_active_monitor.sv(35) @ 1905: uvm_test_top.env.active_agent.active_monitor [uvm_test_top.env.active_agent.active_monitor] apb_seeq_item -> psel: 0 | penable : 0 | pwrite : 1 | paddr : 129 | pwdata : 0 | pstrb : 0001 | prdata : 0 | pready : 0 | pslverr : 0
# active_monitor ...sequence...
# UVM_INFO apb_active_monitor.sv(35) @ 1915: uvm_test_top.env.active_agent.active_monitor [uvm_test_top.env.active_agent.active_monitor] apb_seeq_item -> psel: 1 | penable : 0 | pwrite : 1 | paddr : 129 | pwdata : 0 | pstrb : 0001 | prdata : 0 | pready : 0 | pslverr : 0
# active_monitor ...sequence...
# UVM_INFO apb_active_monitor.sv(35) @ 1925: uvm_test_top.env.active_agent.active_monitor [uvm_test_top.env.active_agent.active_monitor] apb_seeq_item -> psel: 1 | penable : 1 | pwrite : 1 | paddr : 129 | pwdata : 0 | pstrb : 0001 | prdata : 0 | pready : 0 | pslverr : 0
# passive_monitor ...sequence...
# UVM_INFO apb_passive_monitor.sv(31) @ 1935: uvm_test_top.env.passive_agent.passive_monitor [uvm_test_top.env.passive_agent.passive_monitor] apb_seeq_item -> psel: 0 | penable : 0 | pwrite : 0 | paddr : 0 | pwdata : 0 | pstrb : 0000 | prdata : 0 | pready : 1 | pslverr : 0
# UVM_INFO apb_scoreboard.sv(47) @ 1935: uvm_test_top.env.scoreboard [apb_slv_scoreboard] mem : 5 10 15 20 25 30 35 40 45 50 0 0 0 0 0 0 0 0 0 0 0 0 0 0 0 0 0 0 0 0 0 0 0 0 0 0 0 0 0 0 0 0 0 0 0 0 0 0 0 0 0 0 0 0 0 0 5 0 10 0 15 0 20 0 25 0 30 0 35 0 40 0 45 0 50 0 0 0 0 0 0 0 0 0 0 0 0 0 0 0 0 0 0 0 0 0 0 0 0 0 0 0 0 0 0 0 0 0 0 0 0 0 0 0 0 0 0 0 0 0 0 0 0 0 0 0 0 0 0 0 0 0 0 0 0 0 0 0 0 0 0 0 0 0 0 0 0 0 0 0 0 0 0 0 0 0 0 0 0 0 0 0 0 0 0 0 0 0 0 0 0 0 0 0 0 0 0 0 0 0 0 0 0 0 0 0 0 0 0 0 0 0 0 0 0 0 0 0 0 0 0 0 0 0 0 0 0 0 0 0 0 0 0 0 0 0 0 0 0 0 0 0 0 0 0 0 0 0 0 0 0 0 0 0 0 0 0 0 0 0 0 0 0 0 0 0 0 0 0 0 0 0 0 0 0 0
# exp_pslverr : 0
# active_monitor ...sequence...
# UVM_INFO apb_active_monitor.sv(35) @ 1945: uvm_test_top.env.active_agent.active_monitor [uvm_test_top.env.active_agent.active_monitor] apb_seeq_item -> psel: 0 | penable : 0 | pwrite : 0 | paddr : 1350327466 | pwdata : 2362304622 | pstrb : 0011 | prdata : 0 | pready : 0 | pslverr : 0
# active_monitor ...sequence...
# UVM_INFO apb_active_monitor.sv(35) @ 1955: uvm_test_top.env.active_agent.active_monitor [uvm_test_top.env.active_agent.active_monitor] apb_seeq_item -> psel: 1 | penable : 0 | pwrite : 1 | paddr : 134 | pwdata : 50 | pstrb : 0001 | prdata : 0 | pready : 0 | pslverr : 0
# active_monitor ...sequence...
# UVM_INFO apb_active_monitor.sv(35) @ 1965: uvm_test_top.env.active_agent.active_monitor [uvm_test_top.env.active_agent.active_monitor] apb_seeq_item -> psel: 1 | penable : 1 | pwrite : 1 | paddr : 134 | pwdata : 50 | pstrb : 0001 | prdata : 0 | pready : 0 | pslverr : 0
# passive_monitor ...sequence...
# UVM_INFO apb_passive_monitor.sv(31) @ 1975: uvm_test_top.env.passive_agent.passive_monitor [uvm_test_top.env.passive_agent.passive_monitor] apb_seeq_item -> psel: 0 | penable : 0 | pwrite : 0 | paddr : 0 | pwdata : 0 | pstrb : 0000 | prdata : 0 | pready : 1 | pslverr : 0
# UVM_INFO apb_scoreboard.sv(47) @ 1975: uvm_test_top.env.scoreboard [apb_slv_scoreboard] mem : 5 10 15 20 25 30 35 40 45 50 0 0 0 0 0 0 0 0 0 0 0 0 0 0 0 0 0 0 0 0 0 0 0 0 0 0 0 0 0 0 0 0 0 0 0 0 0 0 0 0 0 0 0 0 0 0 5 0 10 0 15 0 20 0 25 0 30 0 35 0 40 0 45 0 50 0 0 0 0 0 0 0 0 0 0 0 0 0 0 0 0 0 0 0 0 0 0 0 0 0 0 0 0 0 0 0 0 0 0 0 0 0 0 0 0 0 0 0 0 0 0 0 0 0 0 0 0 0 0 0 0 0 0 0 50 0 0 0 0 0 0 0 0 0 0 0 0 0 0 0 0 0 0 0 0 0 0 0 0 0 0 0 0 0 0 0 0 0 0 0 0 0 0 0 0 0 0 0 0 0 0 0 0 0 0 0 0 0 0 0 0 0 0 0 0 0 0 0 0 0 0 0 0 0 0 0 0 0 0 0 0 0 0 0 0 0 0 0 0 0 0 0 0 0 0 0 0 0 0 0 0 0 0 0 0 0 0 0 0 0 0 0 0 0 0 0 0 0 0 0 0 0 0 0 0 0
# exp_pslverr : 0
# active_monitor ...sequence...
# UVM_INFO apb_active_monitor.sv(35) @ 1985: uvm_test_top.env.active_agent.active_monitor [uvm_test_top.env.active_agent.active_monitor] apb_seeq_item -> psel: 0 | penable : 0 | pwrite : 0 | paddr : 3699799027 | pwdata : 3900915021 | pstrb : 0010 | prdata : 0 | pready : 0 | pslverr : 0
# active_monitor ...sequence...
# UVM_INFO apb_active_monitor.sv(35) @ 1995: uvm_test_top.env.active_agent.active_monitor [uvm_test_top.env.active_agent.active_monitor] apb_seeq_item -> psel: 1 | penable : 0 | pwrite : 1 | paddr : 139 | pwdata : 100 | pstrb : 0001 | prdata : 0 | pready : 0 | pslverr : 0
# active_monitor ...sequence...
# UVM_INFO apb_active_monitor.sv(35) @ 2005: uvm_test_top.env.active_agent.active_monitor [uvm_test_top.env.active_agent.active_monitor] apb_seeq_item -> psel: 1 | penable : 1 | pwrite : 1 | paddr : 139 | pwdata : 100 | pstrb : 0001 | prdata : 0 | pready : 0 | pslverr : 0
# passive_monitor ...sequence...
# UVM_INFO apb_passive_monitor.sv(31) @ 2015: uvm_test_top.env.passive_agent.passive_monitor [uvm_test_top.env.passive_agent.passive_monitor] apb_seeq_item -> psel: 0 | penable : 0 | pwrite : 0 | paddr : 0 | pwdata : 0 | pstrb : 0000 | prdata : 0 | pready : 1 | pslverr : 0
# UVM_INFO apb_scoreboard.sv(47) @ 2015: uvm_test_top.env.scoreboard [apb_slv_scoreboard] mem : 5 10 15 20 25 30 35 40 45 50 0 0 0 0 0 0 0 0 0 0 0 0 0 0 0 0 0 0 0 0 0 0 0 0 0 0 0 0 0 0 0 0 0 0 0 0 0 0 0 0 0 0 0 0 0 0 5 0 10 0 15 0 20 0 25 0 30 0 35 0 40 0 45 0 50 0 0 0 0 0 0 0 0 0 0 0 0 0 0 0 0 0 0 0 0 0 0 0 0 0 0 0 0 0 0 0 0 0 0 0 0 0 0 0 0 0 0 0 0 0 0 0 0 0 0 0 0 0 0 0 0 0 0 0 50 0 0 0 0 100 0 0 0 0 0 0 0 0 0 0 0 0 0 0 0 0 0 0 0 0 0 0 0 0 0 0 0 0 0 0 0 0 0 0 0 0 0 0 0 0 0 0 0 0 0 0 0 0 0 0 0 0 0 0 0 0 0 0 0 0 0 0 0 0 0 0 0 0 0 0 0 0 0 0 0 0 0 0 0 0 0 0 0 0 0 0 0 0 0 0 0 0 0 0 0 0 0 0 0 0 0 0 0 0 0 0 0 0 0 0 0 0 0 0 0 0
# exp_pslverr : 0
# active_monitor ...sequence...
# UVM_INFO apb_active_monitor.sv(35) @ 2025: uvm_test_top.env.active_agent.active_monitor [uvm_test_top.env.active_agent.active_monitor] apb_seeq_item -> psel: 0 | penable : 0 | pwrite : 1 | paddr : 3570368553 | pwdata : 2987807613 | pstrb : 1101 | prdata : 0 | pready : 0 | pslverr : 0
# active_monitor ...sequence...
# UVM_INFO apb_active_monitor.sv(35) @ 2035: uvm_test_top.env.active_agent.active_monitor [uvm_test_top.env.active_agent.active_monitor] apb_seeq_item -> psel: 1 | penable : 0 | pwrite : 1 | paddr : 144 | pwdata : 150 | pstrb : 0001 | prdata : 0 | pready : 0 | pslverr : 0
# active_monitor ...sequence...
# UVM_INFO apb_active_monitor.sv(35) @ 2045: uvm_test_top.env.active_agent.active_monitor [uvm_test_top.env.active_agent.active_monitor] apb_seeq_item -> psel: 1 | penable : 1 | pwrite : 1 | paddr : 144 | pwdata : 150 | pstrb : 0001 | prdata : 0 | pready : 0 | pslverr : 0
# passive_monitor ...sequence...
# UVM_INFO apb_passive_monitor.sv(31) @ 2055: uvm_test_top.env.passive_agent.passive_monitor [uvm_test_top.env.passive_agent.passive_monitor] apb_seeq_item -> psel: 0 | penable : 0 | pwrite : 0 | paddr : 0 | pwdata : 0 | pstrb : 0000 | prdata : 0 | pready : 1 | pslverr : 0
# UVM_INFO apb_scoreboard.sv(47) @ 2055: uvm_test_top.env.scoreboard [apb_slv_scoreboard] mem : 5 10 15 20 25 30 35 40 45 50 0 0 0 0 0 0 0 0 0 0 0 0 0 0 0 0 0 0 0 0 0 0 0 0 0 0 0 0 0 0 0 0 0 0 0 0 0 0 0 0 0 0 0 0 0 0 5 0 10 0 15 0 20 0 25 0 30 0 35 0 40 0 45 0 50 0 0 0 0 0 0 0 0 0 0 0 0 0 0 0 0 0 0 0 0 0 0 0 0 0 0 0 0 0 0 0 0 0 0 0 0 0 0 0 0 0 0 0 0 0 0 0 0 0 0 0 0 0 0 0 0 0 0 0 50 0 0 0 0 100 0 0 0 0 150 0 0 0 0 0 0 0 0 0 0 0 0 0 0 0 0 0 0 0 0 0 0 0 0 0 0 0 0 0 0 0 0 0 0 0 0 0 0 0 0 0 0 0 0 0 0 0 0 0 0 0 0 0 0 0 0 0 0 0 0 0 0 0 0 0 0 0 0 0 0 0 0 0 0 0 0 0 0 0 0 0 0 0 0 0 0 0 0 0 0 0 0 0 0 0 0 0 0 0 0 0 0 0 0 0 0 0 0 0 0 0
# exp_pslverr : 0
# active_monitor ...sequence...
# UVM_INFO apb_active_monitor.sv(35) @ 2065: uvm_test_top.env.active_agent.active_monitor [uvm_test_top.env.active_agent.active_monitor] apb_seeq_item -> psel: 0 | penable : 0 | pwrite : 1 | paddr : 2930144921 | pwdata : 1960600642 | pstrb : 0100 | prdata : 0 | pready : 0 | pslverr : 0
# active_monitor ...sequence...
# UVM_INFO apb_active_monitor.sv(35) @ 2075: uvm_test_top.env.active_agent.active_monitor [uvm_test_top.env.active_agent.active_monitor] apb_seeq_item -> psel: 1 | penable : 0 | pwrite : 1 | paddr : 149 | pwdata : 200 | pstrb : 0001 | prdata : 0 | pready : 0 | pslverr : 0
# active_monitor ...sequence...
# UVM_INFO apb_active_monitor.sv(35) @ 2085: uvm_test_top.env.active_agent.active_monitor [uvm_test_top.env.active_agent.active_monitor] apb_seeq_item -> psel: 1 | penable : 1 | pwrite : 1 | paddr : 149 | pwdata : 200 | pstrb : 0001 | prdata : 0 | pready : 0 | pslverr : 0
# passive_monitor ...sequence...
# UVM_INFO apb_passive_monitor.sv(31) @ 2095: uvm_test_top.env.passive_agent.passive_monitor [uvm_test_top.env.passive_agent.passive_monitor] apb_seeq_item -> psel: 0 | penable : 0 | pwrite : 0 | paddr : 0 | pwdata : 0 | pstrb : 0000 | prdata : 0 | pready : 1 | pslverr : 0
# UVM_INFO apb_scoreboard.sv(47) @ 2095: uvm_test_top.env.scoreboard [apb_slv_scoreboard] mem : 5 10 15 20 25 30 35 40 45 50 0 0 0 0 0 0 0 0 0 0 0 0 0 0 0 0 0 0 0 0 0 0 0 0 0 0 0 0 0 0 0 0 0 0 0 0 0 0 0 0 0 0 0 0 0 0 5 0 10 0 15 0 20 0 25 0 30 0 35 0 40 0 45 0 50 0 0 0 0 0 0 0 0 0 0 0 0 0 0 0 0 0 0 0 0 0 0 0 0 0 0 0 0 0 0 0 0 0 0 0 0 0 0 0 0 0 0 0 0 0 0 0 0 0 0 0 0 0 0 0 0 0 0 0 50 0 0 0 0 100 0 0 0 0 150 0 0 0 0 200 0 0 0 0 0 0 0 0 0 0 0 0 0 0 0 0 0 0 0 0 0 0 0 0 0 0 0 0 0 0 0 0 0 0 0 0 0 0 0 0 0 0 0 0 0 0 0 0 0 0 0 0 0 0 0 0 0 0 0 0 0 0 0 0 0 0 0 0 0 0 0 0 0 0 0 0 0 0 0 0 0 0 0 0 0 0 0 0 0 0 0 0 0 0 0 0 0 0 0 0 0 0 0 0 0 0
# exp_pslverr : 0
# active_monitor ...sequence...
# UVM_INFO apb_active_monitor.sv(35) @ 2105: uvm_test_top.env.active_agent.active_monitor [uvm_test_top.env.active_agent.active_monitor] apb_seeq_item -> psel: 0 | penable : 0 | pwrite : 1 | paddr : 2716749182 | pwdata : 1219875084 | pstrb : 1000 | prdata : 0 | pready : 0 | pslverr : 0
# active_monitor ...sequence...
# UVM_INFO apb_active_monitor.sv(35) @ 2115: uvm_test_top.env.active_agent.active_monitor [uvm_test_top.env.active_agent.active_monitor] apb_seeq_item -> psel: 1 | penable : 0 | pwrite : 1 | paddr : 154 | pwdata : 250 | pstrb : 0001 | prdata : 0 | pready : 0 | pslverr : 0
# active_monitor ...sequence...
# UVM_INFO apb_active_monitor.sv(35) @ 2125: uvm_test_top.env.active_agent.active_monitor [uvm_test_top.env.active_agent.active_monitor] apb_seeq_item -> psel: 1 | penable : 1 | pwrite : 1 | paddr : 154 | pwdata : 250 | pstrb : 0001 | prdata : 0 | pready : 0 | pslverr : 0
# passive_monitor ...sequence...
# UVM_INFO apb_passive_monitor.sv(31) @ 2135: uvm_test_top.env.passive_agent.passive_monitor [uvm_test_top.env.passive_agent.passive_monitor] apb_seeq_item -> psel: 0 | penable : 0 | pwrite : 0 | paddr : 0 | pwdata : 0 | pstrb : 0000 | prdata : 0 | pready : 1 | pslverr : 0
# UVM_INFO apb_scoreboard.sv(47) @ 2135: uvm_test_top.env.scoreboard [apb_slv_scoreboard] mem : 5 10 15 20 25 30 35 40 45 50 0 0 0 0 0 0 0 0 0 0 0 0 0 0 0 0 0 0 0 0 0 0 0 0 0 0 0 0 0 0 0 0 0 0 0 0 0 0 0 0 0 0 0 0 0 0 5 0 10 0 15 0 20 0 25 0 30 0 35 0 40 0 45 0 50 0 0 0 0 0 0 0 0 0 0 0 0 0 0 0 0 0 0 0 0 0 0 0 0 0 0 0 0 0 0 0 0 0 0 0 0 0 0 0 0 0 0 0 0 0 0 0 0 0 0 0 0 0 0 0 0 0 0 0 50 0 0 0 0 100 0 0 0 0 150 0 0 0 0 200 0 0 0 0 250 0 0 0 0 0 0 0 0 0 0 0 0 0 0 0 0 0 0 0 0 0 0 0 0 0 0 0 0 0 0 0 0 0 0 0 0 0 0 0 0 0 0 0 0 0 0 0 0 0 0 0 0 0 0 0 0 0 0 0 0 0 0 0 0 0 0 0 0 0 0 0 0 0 0 0 0 0 0 0 0 0 0 0 0 0 0 0 0 0 0 0 0 0 0 0 0 0 0 0 0 0
# exp_pslverr : 0
# active_monitor ...sequence...
# UVM_INFO apb_active_monitor.sv(35) @ 2145: uvm_test_top.env.active_agent.active_monitor [uvm_test_top.env.active_agent.active_monitor] apb_seeq_item -> psel: 0 | penable : 0 | pwrite : 1 | paddr : 1443926370 | pwdata : 1800175352 | pstrb : 1101 | prdata : 0 | pready : 0 | pslverr : 0
# active_monitor ...sequence...
# UVM_INFO apb_active_monitor.sv(35) @ 2155: uvm_test_top.env.active_agent.active_monitor [uvm_test_top.env.active_agent.active_monitor] apb_seeq_item -> psel: 1 | penable : 0 | pwrite : 1 | paddr : 159 | pwdata : 300 | pstrb : 0001 | prdata : 0 | pready : 0 | pslverr : 0
# active_monitor ...sequence...
# UVM_INFO apb_active_monitor.sv(35) @ 2165: uvm_test_top.env.active_agent.active_monitor [uvm_test_top.env.active_agent.active_monitor] apb_seeq_item -> psel: 1 | penable : 1 | pwrite : 1 | paddr : 159 | pwdata : 300 | pstrb : 0001 | prdata : 0 | pready : 0 | pslverr : 0
# passive_monitor ...sequence...
# UVM_INFO apb_passive_monitor.sv(31) @ 2175: uvm_test_top.env.passive_agent.passive_monitor [uvm_test_top.env.passive_agent.passive_monitor] apb_seeq_item -> psel: 0 | penable : 0 | pwrite : 0 | paddr : 0 | pwdata : 0 | pstrb : 0000 | prdata : 0 | pready : 1 | pslverr : 0
# UVM_INFO apb_scoreboard.sv(47) @ 2175: uvm_test_top.env.scoreboard [apb_slv_scoreboard] mem : 5 10 15 20 25 30 35 40 45 50 0 0 0 0 0 0 0 0 0 0 0 0 0 0 0 0 0 0 0 0 0 0 0 0 0 0 0 0 0 0 0 0 0 0 0 0 0 0 0 0 0 0 0 0 0 0 5 0 10 0 15 0 20 0 25 0 30 0 35 0 40 0 45 0 50 0 0 0 0 0 0 0 0 0 0 0 0 0 0 0 0 0 0 0 0 0 0 0 0 0 0 0 0 0 0 0 0 0 0 0 0 0 0 0 0 0 0 0 0 0 0 0 0 0 0 0 0 0 0 0 0 0 0 0 50 0 0 0 0 100 0 0 0 0 150 0 0 0 0 200 0 0 0 0 250 0 0 0 0 44 0 0 0 0 0 0 0 0 0 0 0 0 0 0 0 0 0 0 0 0 0 0 0 0 0 0 0 0 0 0 0 0 0 0 0 0 0 0 0 0 0 0 0 0 0 0 0 0 0 0 0 0 0 0 0 0 0 0 0 0 0 0 0 0 0 0 0 0 0 0 0 0 0 0 0 0 0 0 0 0 0 0 0 0 0 0 0 0 0 0 0 0 0 0 0 0
# exp_pslverr : 0
# active_monitor ...sequence...
# UVM_INFO apb_active_monitor.sv(35) @ 2185: uvm_test_top.env.active_agent.active_monitor [uvm_test_top.env.active_agent.active_monitor] apb_seeq_item -> psel: 0 | penable : 0 | pwrite : 0 | paddr : 1757740820 | pwdata : 1691999637 | pstrb : 0000 | prdata : 0 | pready : 0 | pslverr : 0
# active_monitor ...sequence...
# UVM_INFO apb_active_monitor.sv(35) @ 2195: uvm_test_top.env.active_agent.active_monitor [uvm_test_top.env.active_agent.active_monitor] apb_seeq_item -> psel: 1 | penable : 0 | pwrite : 1 | paddr : 164 | pwdata : 350 | pstrb : 0001 | prdata : 0 | pready : 0 | pslverr : 0
# active_monitor ...sequence...
# UVM_INFO apb_active_monitor.sv(35) @ 2205: uvm_test_top.env.active_agent.active_monitor [uvm_test_top.env.active_agent.active_monitor] apb_seeq_item -> psel: 1 | penable : 1 | pwrite : 1 | paddr : 164 | pwdata : 350 | pstrb : 0001 | prdata : 0 | pready : 0 | pslverr : 0
# passive_monitor ...sequence...
# UVM_INFO apb_passive_monitor.sv(31) @ 2215: uvm_test_top.env.passive_agent.passive_monitor [uvm_test_top.env.passive_agent.passive_monitor] apb_seeq_item -> psel: 0 | penable : 0 | pwrite : 0 | paddr : 0 | pwdata : 0 | pstrb : 0000 | prdata : 0 | pready : 1 | pslverr : 0
# UVM_INFO apb_scoreboard.sv(47) @ 2215: uvm_test_top.env.scoreboard [apb_slv_scoreboard] mem : 5 10 15 20 25 30 35 40 45 50 0 0 0 0 0 0 0 0 0 0 0 0 0 0 0 0 0 0 0 0 0 0 0 0 0 0 0 0 0 0 0 0 0 0 0 0 0 0 0 0 0 0 0 0 0 0 5 0 10 0 15 0 20 0 25 0 30 0 35 0 40 0 45 0 50 0 0 0 0 0 0 0 0 0 0 0 0 0 0 0 0 0 0 0 0 0 0 0 0 0 0 0 0 0 0 0 0 0 0 0 0 0 0 0 0 0 0 0 0 0 0 0 0 0 0 0 0 0 0 0 0 0 0 0 50 0 0 0 0 100 0 0 0 0 150 0 0 0 0 200 0 0 0 0 250 0 0 0 0 44 0 0 0 0 94 0 0 0 0 0 0 0 0 0 0 0 0 0 0 0 0 0 0 0 0 0 0 0 0 0 0 0 0 0 0 0 0 0 0 0 0 0 0 0 0 0 0 0 0 0 0 0 0 0 0 0 0 0 0 0 0 0 0 0 0 0 0 0 0 0 0 0 0 0 0 0 0 0 0 0 0 0 0 0 0 0 0 0 0 0 0 0 0 0 0 0
# exp_pslverr : 0
# active_monitor ...sequence...
# UVM_INFO apb_active_monitor.sv(35) @ 2225: uvm_test_top.env.active_agent.active_monitor [uvm_test_top.env.active_agent.active_monitor] apb_seeq_item -> psel: 0 | penable : 0 | pwrite : 0 | paddr : 1475355830 | pwdata : 763025671 | pstrb : 1011 | prdata : 0 | pready : 0 | pslverr : 0
# active_monitor ...sequence...
# UVM_INFO apb_active_monitor.sv(35) @ 2235: uvm_test_top.env.active_agent.active_monitor [uvm_test_top.env.active_agent.active_monitor] apb_seeq_item -> psel: 1 | penable : 0 | pwrite : 1 | paddr : 169 | pwdata : 400 | pstrb : 0001 | prdata : 0 | pready : 0 | pslverr : 0
# active_monitor ...sequence...
# UVM_INFO apb_active_monitor.sv(35) @ 2245: uvm_test_top.env.active_agent.active_monitor [uvm_test_top.env.active_agent.active_monitor] apb_seeq_item -> psel: 1 | penable : 1 | pwrite : 1 | paddr : 169 | pwdata : 400 | pstrb : 0001 | prdata : 0 | pready : 0 | pslverr : 0
# passive_monitor ...sequence...
# UVM_INFO apb_passive_monitor.sv(31) @ 2255: uvm_test_top.env.passive_agent.passive_monitor [uvm_test_top.env.passive_agent.passive_monitor] apb_seeq_item -> psel: 0 | penable : 0 | pwrite : 0 | paddr : 0 | pwdata : 0 | pstrb : 0000 | prdata : 0 | pready : 1 | pslverr : 0
# UVM_INFO apb_scoreboard.sv(47) @ 2255: uvm_test_top.env.scoreboard [apb_slv_scoreboard] mem : 5 10 15 20 25 30 35 40 45 50 0 0 0 0 0 0 0 0 0 0 0 0 0 0 0 0 0 0 0 0 0 0 0 0 0 0 0 0 0 0 0 0 0 0 0 0 0 0 0 0 0 0 0 0 0 0 5 0 10 0 15 0 20 0 25 0 30 0 35 0 40 0 45 0 50 0 0 0 0 0 0 0 0 0 0 0 0 0 0 0 0 0 0 0 0 0 0 0 0 0 0 0 0 0 0 0 0 0 0 0 0 0 0 0 0 0 0 0 0 0 0 0 0 0 0 0 0 0 0 0 0 0 0 0 50 0 0 0 0 100 0 0 0 0 150 0 0 0 0 200 0 0 0 0 250 0 0 0 0 44 0 0 0 0 94 0 0 0 0 144 0 0 0 0 0 0 0 0 0 0 0 0 0 0 0 0 0 0 0 0 0 0 0 0 0 0 0 0 0 0 0 0 0 0 0 0 0 0 0 0 0 0 0 0 0 0 0 0 0 0 0 0 0 0 0 0 0 0 0 0 0 0 0 0 0 0 0 0 0 0 0 0 0 0 0 0 0 0 0 0 0 0 0 0 0 0
# exp_pslverr : 0
# active_monitor ...sequence...
# UVM_INFO apb_active_monitor.sv(35) @ 2265: uvm_test_top.env.active_agent.active_monitor [uvm_test_top.env.active_agent.active_monitor] apb_seeq_item -> psel: 0 | penable : 0 | pwrite : 1 | paddr : 3226922523 | pwdata : 1420147518 | pstrb : 0011 | prdata : 0 | pready : 0 | pslverr : 0
# active_monitor ...sequence...
# UVM_INFO apb_active_monitor.sv(35) @ 2275: uvm_test_top.env.active_agent.active_monitor [uvm_test_top.env.active_agent.active_monitor] apb_seeq_item -> psel: 1 | penable : 0 | pwrite : 1 | paddr : 174 | pwdata : 450 | pstrb : 0001 | prdata : 0 | pready : 0 | pslverr : 0
# active_monitor ...sequence...
# UVM_INFO apb_active_monitor.sv(35) @ 2285: uvm_test_top.env.active_agent.active_monitor [uvm_test_top.env.active_agent.active_monitor] apb_seeq_item -> psel: 1 | penable : 1 | pwrite : 1 | paddr : 174 | pwdata : 450 | pstrb : 0001 | prdata : 0 | pready : 0 | pslverr : 0
# passive_monitor ...sequence...
# UVM_INFO apb_passive_monitor.sv(31) @ 2295: uvm_test_top.env.passive_agent.passive_monitor [uvm_test_top.env.passive_agent.passive_monitor] apb_seeq_item -> psel: 0 | penable : 0 | pwrite : 0 | paddr : 0 | pwdata : 0 | pstrb : 0000 | prdata : 0 | pready : 1 | pslverr : 0
