# vsim -c top 
# Start time: 12:37:49 on Dec 07,2025
# ** Note: (vsim-8009) Loading existing optimized design _opt
# //  Questa Sim
# //  Version 10.6c linux Jul 25 2017
# //
# //  Copyright 1991-2017 Mentor Graphics Corporation
# //  All Rights Reserved.
# //
# //  QuestaSim and its associated documentation contain trade
# //  secrets and commercial or financial information that are the property of
# //  Mentor Graphics Corporation and are privileged, confidential,
# //  and exempt from disclosure under the Freedom of Information Act,
# //  5 U.S.C. Section 552. Furthermore, this information
# //  is prohibited from disclosure under the Trade Secrets Act,
# //  18 U.S.C. Section 1905.
# //
# Loading sv_std.std
# Loading work.apb_slv_intf(fast)
# Loading mtiUvm.uvm_pkg
# Loading work.apb_pkg(fast)
# Loading work.top_sv_unit(fast)
# Loading work.top(fast)
# Loading mtiUvm.questa_uvm_pkg(fast)
# Loading /tools/mentor/questasim_10.6c/questasim/uvm-1.1d/linux/uvm_dpi.so
# ----------------------------------------------------------------
# UVM-1.1d
# (C) 2007-2013 Mentor Graphics Corporation
# (C) 2007-2013 Cadence Design Systems, Inc.
# (C) 2006-2013 Synopsys, Inc.
# (C) 2011-2013 Cypress Semiconductor Corp.
# ----------------------------------------------------------------
# 
#   ***********       IMPORTANT RELEASE NOTES         ************
# 
#   You are using a version of the UVM library that has been compiled
#   with `UVM_NO_DEPRECATED undefined.
#   See http://www.eda.org/svdb/view.php?id=3313 for more details.
# 
#   You are using a version of the UVM library that has been compiled
#   with `UVM_OBJECT_MUST_HAVE_CONSTRUCTOR undefined.
#   See http://www.eda.org/svdb/view.php?id=3770 for more details.
# 
#       (Specify +UVM_NO_RELNOTES to turn off this notice)
# 
# UVM_INFO verilog_src/questa_uvm_pkg-1.2/src/questa_uvm_pkg.sv(215) @ 0: reporter [Questa UVM] QUESTA_UVM-1.2.3
# UVM_INFO verilog_src/questa_uvm_pkg-1.2/src/questa_uvm_pkg.sv(217) @ 0: reporter [Questa UVM]  questa_uvm::init(+struct)
# UVM_INFO @ 0: reporter [RNTST] Running test apb_regression...
# UVM_INFO apb_agent.sv(20) @ 0: uvm_test_top.env.active_agent [apb_slv_agent] Agent uvm_test_top.env.active_agent is  ACTIVE
# UVM_INFO apb_agent.sv(20) @ 0: uvm_test_top.env.passive_agent [apb_slv_agent] Agent uvm_test_top.env.passive_agent is  ACTIVE
# active_monitor ...sequence...
# UVM_INFO apb_active_monitor.sv(35) @ 15: uvm_test_top.env.active_agent.active_monitor [uvm_test_top.env.active_agent.active_monitor] apb_seq_item -> psel: 0 | penable : 1 | pwrite : 1 | paddr : 0 | pwdata : 5 | pstrb : 1111 | prdata : 0 | pready : 0 | pslverr : 0
# active_monitor ...sequence...
# UVM_INFO apb_active_monitor.sv(35) @ 25: uvm_test_top.env.active_agent.active_monitor [uvm_test_top.env.active_agent.active_monitor] apb_seq_item -> psel: 0 | penable : 0 | pwrite : 1 | paddr : 0 | pwdata : 5 | pstrb : 1111 | prdata : 0 | pready : 0 | pslverr : 0
# active_monitor ...sequence...
# UVM_INFO apb_active_monitor.sv(35) @ 35: uvm_test_top.env.active_agent.active_monitor [uvm_test_top.env.active_agent.active_monitor] apb_seq_item -> psel: 1 | penable : 0 | pwrite : 1 | paddr : 0 | pwdata : 5 | pstrb : 1111 | prdata : 0 | pready : 0 | pslverr : 0
# active_monitor ...sequence...
# UVM_INFO apb_active_monitor.sv(35) @ 45: uvm_test_top.env.active_agent.active_monitor [uvm_test_top.env.active_agent.active_monitor] apb_seq_item -> psel: 1 | penable : 1 | pwrite : 1 | paddr : 0 | pwdata : 5 | pstrb : 1111 | prdata : 0 | pready : 0 | pslverr : 0
# passive_monitor ...sequence...
# UVM_INFO apb_passive_monitor.sv(31) @ 55: uvm_test_top.env.passive_agent.passive_monitor [uvm_test_top.env.passive_agent.passive_monitor] apb_seq_item -> psel: 0 | penable : 0 | pwrite : 0 | paddr : 0 | pwdata : 0 | pstrb : 0000 | prdata : 0 | pready : 1 | pslverr : 0
# UVM_INFO apb_scoreboard.sv(47) @ 55: uvm_test_top.env.scoreboard [apb_slv_scoreboard] mem : 5 0 0 0 0 0 0 0 0 0 0 0 0 0 0 0 0 0 0 0 0 0 0 0 0 0 0 0 0 0 0 0 0 0 0 0 0 0 0 0 0 0 0 0 0 0 0 0 0 0 0 0 0 0 0 0 0 0 0 0 0 0 0 0 0 0 0 0 0 0 0 0 0 0 0 0 0 0 0 0 0 0 0 0 0 0 0 0 0 0 0 0 0 0 0 0 0 0 0 0 0 0 0 0 0 0 0 0 0 0 0 0 0 0 0 0 0 0 0 0 0 0 0 0 0 0 0 0 0 0 0 0 0 0 0 0 0 0 0 0 0 0 0 0 0 0 0 0 0 0 0 0 0 0 0 0 0 0 0 0 0 0 0 0 0 0 0 0 0 0 0 0 0 0 0 0 0 0 0 0 0 0 0 0 0 0 0 0 0 0 0 0 0 0 0 0 0 0 0 0 0 0 0 0 0 0 0 0 0 0 0 0 0 0 0 0 0 0 0 0 0 0 0 0 0 0 0 0 0 0 0 0 0 0 0 0 0 0 0 0 0 0 0 0 0 0 0 0 0 0 0 0 0 0 0 0
# exp_pslverr : 0
# active_monitor ...sequence...
# UVM_INFO apb_active_monitor.sv(35) @ 65: uvm_test_top.env.active_agent.active_monitor [uvm_test_top.env.active_agent.active_monitor] apb_seq_item -> psel: 1 | penable : 0 | pwrite : 1 | paddr : 2939701458 | pwdata : 2245881496 | pstrb : 1101 | prdata : 0 | pready : 0 | pslverr : 0
# active_monitor ...sequence...
# UVM_INFO apb_active_monitor.sv(35) @ 75: uvm_test_top.env.active_agent.active_monitor [uvm_test_top.env.active_agent.active_monitor] apb_seq_item -> psel: 1 | penable : 0 | pwrite : 1 | paddr : 1 | pwdata : 10 | pstrb : 1111 | prdata : 0 | pready : 0 | pslverr : 0
# active_monitor ...sequence...
# UVM_INFO apb_active_monitor.sv(35) @ 85: uvm_test_top.env.active_agent.active_monitor [uvm_test_top.env.active_agent.active_monitor] apb_seq_item -> psel: 1 | penable : 1 | pwrite : 1 | paddr : 1 | pwdata : 10 | pstrb : 1111 | prdata : 0 | pready : 0 | pslverr : 0
# passive_monitor ...sequence...
# UVM_INFO apb_passive_monitor.sv(31) @ 95: uvm_test_top.env.passive_agent.passive_monitor [uvm_test_top.env.passive_agent.passive_monitor] apb_seq_item -> psel: 0 | penable : 0 | pwrite : 0 | paddr : 0 | pwdata : 0 | pstrb : 0000 | prdata : 0 | pready : 1 | pslverr : 0
# UVM_INFO apb_scoreboard.sv(47) @ 95: uvm_test_top.env.scoreboard [apb_slv_scoreboard] mem : 5 10 0 0 0 0 0 0 0 0 0 0 0 0 0 0 0 0 0 0 0 0 0 0 0 0 0 0 0 0 0 0 0 0 0 0 0 0 0 0 0 0 0 0 0 0 0 0 0 0 0 0 0 0 0 0 0 0 0 0 0 0 0 0 0 0 0 0 0 0 0 0 0 0 0 0 0 0 0 0 0 0 0 0 0 0 0 0 0 0 0 0 0 0 0 0 0 0 0 0 0 0 0 0 0 0 0 0 0 0 0 0 0 0 0 0 0 0 0 0 0 0 0 0 0 0 0 0 0 0 0 0 0 0 0 0 0 0 0 0 0 0 0 0 0 0 0 0 0 0 0 0 0 0 0 0 0 0 0 0 0 0 0 0 0 0 0 0 0 0 0 0 0 0 0 0 0 0 0 0 0 0 0 0 0 0 0 0 0 0 0 0 0 0 0 0 0 0 0 0 0 0 0 0 0 0 0 0 0 0 0 0 0 0 0 0 0 0 0 0 0 0 0 0 0 0 0 0 0 0 0 0 0 0 0 0 0 0 0 0 0 0 0 0 0 0 0 0 0 0 0 0 0 0 0 0
# exp_pslverr : 0
# active_monitor ...sequence...
# UVM_INFO apb_active_monitor.sv(35) @ 105: uvm_test_top.env.active_agent.active_monitor [uvm_test_top.env.active_agent.active_monitor] apb_seq_item -> psel: 1 | penable : 0 | pwrite : 0 | paddr : 22435129 | pwdata : 2684670019 | pstrb : 1011 | prdata : 0 | pready : 0 | pslverr : 0
# active_monitor ...sequence...
# UVM_INFO apb_active_monitor.sv(35) @ 115: uvm_test_top.env.active_agent.active_monitor [uvm_test_top.env.active_agent.active_monitor] apb_seq_item -> psel: 1 | penable : 0 | pwrite : 1 | paddr : 2 | pwdata : 15 | pstrb : 1111 | prdata : 0 | pready : 0 | pslverr : 0
# active_monitor ...sequence...
# UVM_INFO apb_active_monitor.sv(35) @ 125: uvm_test_top.env.active_agent.active_monitor [uvm_test_top.env.active_agent.active_monitor] apb_seq_item -> psel: 1 | penable : 1 | pwrite : 1 | paddr : 2 | pwdata : 15 | pstrb : 1111 | prdata : 0 | pready : 0 | pslverr : 0
# passive_monitor ...sequence...
# UVM_INFO apb_passive_monitor.sv(31) @ 135: uvm_test_top.env.passive_agent.passive_monitor [uvm_test_top.env.passive_agent.passive_monitor] apb_seq_item -> psel: 0 | penable : 0 | pwrite : 0 | paddr : 0 | pwdata : 0 | pstrb : 0000 | prdata : 0 | pready : 1 | pslverr : 0
# UVM_INFO apb_scoreboard.sv(47) @ 135: uvm_test_top.env.scoreboard [apb_slv_scoreboard] mem : 5 10 15 0 0 0 0 0 0 0 0 0 0 0 0 0 0 0 0 0 0 0 0 0 0 0 0 0 0 0 0 0 0 0 0 0 0 0 0 0 0 0 0 0 0 0 0 0 0 0 0 0 0 0 0 0 0 0 0 0 0 0 0 0 0 0 0 0 0 0 0 0 0 0 0 0 0 0 0 0 0 0 0 0 0 0 0 0 0 0 0 0 0 0 0 0 0 0 0 0 0 0 0 0 0 0 0 0 0 0 0 0 0 0 0 0 0 0 0 0 0 0 0 0 0 0 0 0 0 0 0 0 0 0 0 0 0 0 0 0 0 0 0 0 0 0 0 0 0 0 0 0 0 0 0 0 0 0 0 0 0 0 0 0 0 0 0 0 0 0 0 0 0 0 0 0 0 0 0 0 0 0 0 0 0 0 0 0 0 0 0 0 0 0 0 0 0 0 0 0 0 0 0 0 0 0 0 0 0 0 0 0 0 0 0 0 0 0 0 0 0 0 0 0 0 0 0 0 0 0 0 0 0 0 0 0 0 0 0 0 0 0 0 0 0 0 0 0 0 0 0 0 0 0 0 0
# exp_pslverr : 0
# active_monitor ...sequence...
# UVM_INFO apb_active_monitor.sv(35) @ 145: uvm_test_top.env.active_agent.active_monitor [uvm_test_top.env.active_agent.active_monitor] apb_seq_item -> psel: 1 | penable : 0 | pwrite : 1 | paddr : 3310428912 | pwdata : 142612261 | pstrb : 0010 | prdata : 0 | pready : 0 | pslverr : 0
# active_monitor ...sequence...
# UVM_INFO apb_active_monitor.sv(35) @ 155: uvm_test_top.env.active_agent.active_monitor [uvm_test_top.env.active_agent.active_monitor] apb_seq_item -> psel: 1 | penable : 0 | pwrite : 1 | paddr : 3 | pwdata : 20 | pstrb : 1111 | prdata : 0 | pready : 0 | pslverr : 0
# active_monitor ...sequence...
# UVM_INFO apb_active_monitor.sv(35) @ 165: uvm_test_top.env.active_agent.active_monitor [uvm_test_top.env.active_agent.active_monitor] apb_seq_item -> psel: 1 | penable : 1 | pwrite : 1 | paddr : 3 | pwdata : 20 | pstrb : 1111 | prdata : 0 | pready : 0 | pslverr : 0
# passive_monitor ...sequence...
# UVM_INFO apb_passive_monitor.sv(31) @ 175: uvm_test_top.env.passive_agent.passive_monitor [uvm_test_top.env.passive_agent.passive_monitor] apb_seq_item -> psel: 0 | penable : 0 | pwrite : 0 | paddr : 0 | pwdata : 0 | pstrb : 0000 | prdata : 0 | pready : 1 | pslverr : 0
# UVM_INFO apb_scoreboard.sv(47) @ 175: uvm_test_top.env.scoreboard [apb_slv_scoreboard] mem : 5 10 15 20 0 0 0 0 0 0 0 0 0 0 0 0 0 0 0 0 0 0 0 0 0 0 0 0 0 0 0 0 0 0 0 0 0 0 0 0 0 0 0 0 0 0 0 0 0 0 0 0 0 0 0 0 0 0 0 0 0 0 0 0 0 0 0 0 0 0 0 0 0 0 0 0 0 0 0 0 0 0 0 0 0 0 0 0 0 0 0 0 0 0 0 0 0 0 0 0 0 0 0 0 0 0 0 0 0 0 0 0 0 0 0 0 0 0 0 0 0 0 0 0 0 0 0 0 0 0 0 0 0 0 0 0 0 0 0 0 0 0 0 0 0 0 0 0 0 0 0 0 0 0 0 0 0 0 0 0 0 0 0 0 0 0 0 0 0 0 0 0 0 0 0 0 0 0 0 0 0 0 0 0 0 0 0 0 0 0 0 0 0 0 0 0 0 0 0 0 0 0 0 0 0 0 0 0 0 0 0 0 0 0 0 0 0 0 0 0 0 0 0 0 0 0 0 0 0 0 0 0 0 0 0 0 0 0 0 0 0 0 0 0 0 0 0 0 0 0 0 0 0 0 0 0
# exp_pslverr : 0
# active_monitor ...sequence...
# UVM_INFO apb_active_monitor.sv(35) @ 185: uvm_test_top.env.active_agent.active_monitor [uvm_test_top.env.active_agent.active_monitor] apb_seq_item -> psel: 1 | penable : 0 | pwrite : 0 | paddr : 129554747 | pwdata : 3195512206 | pstrb : 0010 | prdata : 0 | pready : 0 | pslverr : 0
# active_monitor ...sequence...
# UVM_INFO apb_active_monitor.sv(35) @ 195: uvm_test_top.env.active_agent.active_monitor [uvm_test_top.env.active_agent.active_monitor] apb_seq_item -> psel: 1 | penable : 0 | pwrite : 1 | paddr : 4 | pwdata : 25 | pstrb : 1111 | prdata : 0 | pready : 0 | pslverr : 0
# active_monitor ...sequence...
# UVM_INFO apb_active_monitor.sv(35) @ 205: uvm_test_top.env.active_agent.active_monitor [uvm_test_top.env.active_agent.active_monitor] apb_seq_item -> psel: 1 | penable : 1 | pwrite : 1 | paddr : 4 | pwdata : 25 | pstrb : 1111 | prdata : 0 | pready : 0 | pslverr : 0
# passive_monitor ...sequence...
# UVM_INFO apb_passive_monitor.sv(31) @ 215: uvm_test_top.env.passive_agent.passive_monitor [uvm_test_top.env.passive_agent.passive_monitor] apb_seq_item -> psel: 0 | penable : 0 | pwrite : 0 | paddr : 0 | pwdata : 0 | pstrb : 0000 | prdata : 0 | pready : 1 | pslverr : 0
# UVM_INFO apb_scoreboard.sv(47) @ 215: uvm_test_top.env.scoreboard [apb_slv_scoreboard] mem : 5 10 15 20 25 0 0 0 0 0 0 0 0 0 0 0 0 0 0 0 0 0 0 0 0 0 0 0 0 0 0 0 0 0 0 0 0 0 0 0 0 0 0 0 0 0 0 0 0 0 0 0 0 0 0 0 0 0 0 0 0 0 0 0 0 0 0 0 0 0 0 0 0 0 0 0 0 0 0 0 0 0 0 0 0 0 0 0 0 0 0 0 0 0 0 0 0 0 0 0 0 0 0 0 0 0 0 0 0 0 0 0 0 0 0 0 0 0 0 0 0 0 0 0 0 0 0 0 0 0 0 0 0 0 0 0 0 0 0 0 0 0 0 0 0 0 0 0 0 0 0 0 0 0 0 0 0 0 0 0 0 0 0 0 0 0 0 0 0 0 0 0 0 0 0 0 0 0 0 0 0 0 0 0 0 0 0 0 0 0 0 0 0 0 0 0 0 0 0 0 0 0 0 0 0 0 0 0 0 0 0 0 0 0 0 0 0 0 0 0 0 0 0 0 0 0 0 0 0 0 0 0 0 0 0 0 0 0 0 0 0 0 0 0 0 0 0 0 0 0 0 0 0 0 0 0
# exp_pslverr : 0
# active_monitor ...sequence...
# UVM_INFO apb_active_monitor.sv(35) @ 225: uvm_test_top.env.active_agent.active_monitor [uvm_test_top.env.active_agent.active_monitor] apb_seq_item -> psel: 1 | penable : 0 | pwrite : 1 | paddr : 3978160199 | pwdata : 2414698895 | pstrb : 1111 | prdata : 0 | pready : 0 | pslverr : 0
# active_monitor ...sequence...
# UVM_INFO apb_active_monitor.sv(35) @ 235: uvm_test_top.env.active_agent.active_monitor [uvm_test_top.env.active_agent.active_monitor] apb_seq_item -> psel: 1 | penable : 0 | pwrite : 1 | paddr : 5 | pwdata : 30 | pstrb : 1111 | prdata : 0 | pready : 0 | pslverr : 0
# active_monitor ...sequence...
# UVM_INFO apb_active_monitor.sv(35) @ 245: uvm_test_top.env.active_agent.active_monitor [uvm_test_top.env.active_agent.active_monitor] apb_seq_item -> psel: 1 | penable : 1 | pwrite : 1 | paddr : 5 | pwdata : 30 | pstrb : 1111 | prdata : 0 | pready : 0 | pslverr : 0
# passive_monitor ...sequence...
# UVM_INFO apb_passive_monitor.sv(31) @ 255: uvm_test_top.env.passive_agent.passive_monitor [uvm_test_top.env.passive_agent.passive_monitor] apb_seq_item -> psel: 0 | penable : 0 | pwrite : 0 | paddr : 0 | pwdata : 0 | pstrb : 0000 | prdata : 0 | pready : 1 | pslverr : 0
# UVM_INFO apb_scoreboard.sv(47) @ 255: uvm_test_top.env.scoreboard [apb_slv_scoreboard] mem : 5 10 15 20 25 30 0 0 0 0 0 0 0 0 0 0 0 0 0 0 0 0 0 0 0 0 0 0 0 0 0 0 0 0 0 0 0 0 0 0 0 0 0 0 0 0 0 0 0 0 0 0 0 0 0 0 0 0 0 0 0 0 0 0 0 0 0 0 0 0 0 0 0 0 0 0 0 0 0 0 0 0 0 0 0 0 0 0 0 0 0 0 0 0 0 0 0 0 0 0 0 0 0 0 0 0 0 0 0 0 0 0 0 0 0 0 0 0 0 0 0 0 0 0 0 0 0 0 0 0 0 0 0 0 0 0 0 0 0 0 0 0 0 0 0 0 0 0 0 0 0 0 0 0 0 0 0 0 0 0 0 0 0 0 0 0 0 0 0 0 0 0 0 0 0 0 0 0 0 0 0 0 0 0 0 0 0 0 0 0 0 0 0 0 0 0 0 0 0 0 0 0 0 0 0 0 0 0 0 0 0 0 0 0 0 0 0 0 0 0 0 0 0 0 0 0 0 0 0 0 0 0 0 0 0 0 0 0 0 0 0 0 0 0 0 0 0 0 0 0 0 0 0 0 0 0
# exp_pslverr : 0
# active_monitor ...sequence...
# UVM_INFO apb_active_monitor.sv(35) @ 265: uvm_test_top.env.active_agent.active_monitor [uvm_test_top.env.active_agent.active_monitor] apb_seq_item -> psel: 1 | penable : 0 | pwrite : 0 | paddr : 1533662772 | pwdata : 3603234108 | pstrb : 1001 | prdata : 0 | pready : 0 | pslverr : 0
# active_monitor ...sequence...
# UVM_INFO apb_active_monitor.sv(35) @ 275: uvm_test_top.env.active_agent.active_monitor [uvm_test_top.env.active_agent.active_monitor] apb_seq_item -> psel: 1 | penable : 0 | pwrite : 1 | paddr : 6 | pwdata : 35 | pstrb : 1111 | prdata : 0 | pready : 0 | pslverr : 0
# active_monitor ...sequence...
# UVM_INFO apb_active_monitor.sv(35) @ 285: uvm_test_top.env.active_agent.active_monitor [uvm_test_top.env.active_agent.active_monitor] apb_seq_item -> psel: 1 | penable : 1 | pwrite : 1 | paddr : 6 | pwdata : 35 | pstrb : 1111 | prdata : 0 | pready : 0 | pslverr : 0
# passive_monitor ...sequence...
# UVM_INFO apb_passive_monitor.sv(31) @ 295: uvm_test_top.env.passive_agent.passive_monitor [uvm_test_top.env.passive_agent.passive_monitor] apb_seq_item -> psel: 0 | penable : 0 | pwrite : 0 | paddr : 0 | pwdata : 0 | pstrb : 0000 | prdata : 0 | pready : 1 | pslverr : 0
# UVM_INFO apb_scoreboard.sv(47) @ 295: uvm_test_top.env.scoreboard [apb_slv_scoreboard] mem : 5 10 15 20 25 30 35 0 0 0 0 0 0 0 0 0 0 0 0 0 0 0 0 0 0 0 0 0 0 0 0 0 0 0 0 0 0 0 0 0 0 0 0 0 0 0 0 0 0 0 0 0 0 0 0 0 0 0 0 0 0 0 0 0 0 0 0 0 0 0 0 0 0 0 0 0 0 0 0 0 0 0 0 0 0 0 0 0 0 0 0 0 0 0 0 0 0 0 0 0 0 0 0 0 0 0 0 0 0 0 0 0 0 0 0 0 0 0 0 0 0 0 0 0 0 0 0 0 0 0 0 0 0 0 0 0 0 0 0 0 0 0 0 0 0 0 0 0 0 0 0 0 0 0 0 0 0 0 0 0 0 0 0 0 0 0 0 0 0 0 0 0 0 0 0 0 0 0 0 0 0 0 0 0 0 0 0 0 0 0 0 0 0 0 0 0 0 0 0 0 0 0 0 0 0 0 0 0 0 0 0 0 0 0 0 0 0 0 0 0 0 0 0 0 0 0 0 0 0 0 0 0 0 0 0 0 0 0 0 0 0 0 0 0 0 0 0 0 0 0 0 0 0 0 0 0
# exp_pslverr : 0
# active_monitor ...sequence...
# UVM_INFO apb_active_monitor.sv(35) @ 305: uvm_test_top.env.active_agent.active_monitor [uvm_test_top.env.active_agent.active_monitor] apb_seq_item -> psel: 1 | penable : 0 | pwrite : 1 | paddr : 1724346155 | pwdata : 2514362236 | pstrb : 1010 | prdata : 0 | pready : 0 | pslverr : 0
# active_monitor ...sequence...
# UVM_INFO apb_active_monitor.sv(35) @ 315: uvm_test_top.env.active_agent.active_monitor [uvm_test_top.env.active_agent.active_monitor] apb_seq_item -> psel: 1 | penable : 0 | pwrite : 1 | paddr : 7 | pwdata : 40 | pstrb : 1111 | prdata : 0 | pready : 0 | pslverr : 0
# active_monitor ...sequence...
# UVM_INFO apb_active_monitor.sv(35) @ 325: uvm_test_top.env.active_agent.active_monitor [uvm_test_top.env.active_agent.active_monitor] apb_seq_item -> psel: 1 | penable : 1 | pwrite : 1 | paddr : 7 | pwdata : 40 | pstrb : 1111 | prdata : 0 | pready : 0 | pslverr : 0
# passive_monitor ...sequence...
# UVM_INFO apb_passive_monitor.sv(31) @ 335: uvm_test_top.env.passive_agent.passive_monitor [uvm_test_top.env.passive_agent.passive_monitor] apb_seq_item -> psel: 0 | penable : 0 | pwrite : 0 | paddr : 0 | pwdata : 0 | pstrb : 0000 | prdata : 0 | pready : 1 | pslverr : 0
# UVM_INFO apb_scoreboard.sv(47) @ 335: uvm_test_top.env.scoreboard [apb_slv_scoreboard] mem : 5 10 15 20 25 30 35 40 0 0 0 0 0 0 0 0 0 0 0 0 0 0 0 0 0 0 0 0 0 0 0 0 0 0 0 0 0 0 0 0 0 0 0 0 0 0 0 0 0 0 0 0 0 0 0 0 0 0 0 0 0 0 0 0 0 0 0 0 0 0 0 0 0 0 0 0 0 0 0 0 0 0 0 0 0 0 0 0 0 0 0 0 0 0 0 0 0 0 0 0 0 0 0 0 0 0 0 0 0 0 0 0 0 0 0 0 0 0 0 0 0 0 0 0 0 0 0 0 0 0 0 0 0 0 0 0 0 0 0 0 0 0 0 0 0 0 0 0 0 0 0 0 0 0 0 0 0 0 0 0 0 0 0 0 0 0 0 0 0 0 0 0 0 0 0 0 0 0 0 0 0 0 0 0 0 0 0 0 0 0 0 0 0 0 0 0 0 0 0 0 0 0 0 0 0 0 0 0 0 0 0 0 0 0 0 0 0 0 0 0 0 0 0 0 0 0 0 0 0 0 0 0 0 0 0 0 0 0 0 0 0 0 0 0 0 0 0 0 0 0 0 0 0 0 0 0
# exp_pslverr : 0
# active_monitor ...sequence...
# UVM_INFO apb_active_monitor.sv(35) @ 345: uvm_test_top.env.active_agent.active_monitor [uvm_test_top.env.active_agent.active_monitor] apb_seq_item -> psel: 1 | penable : 0 | pwrite : 1 | paddr : 3706792656 | pwdata : 791756398 | pstrb : 1010 | prdata : 0 | pready : 0 | pslverr : 0
# active_monitor ...sequence...
# UVM_INFO apb_active_monitor.sv(35) @ 355: uvm_test_top.env.active_agent.active_monitor [uvm_test_top.env.active_agent.active_monitor] apb_seq_item -> psel: 1 | penable : 0 | pwrite : 1 | paddr : 8 | pwdata : 45 | pstrb : 1111 | prdata : 0 | pready : 0 | pslverr : 0
# active_monitor ...sequence...
# UVM_INFO apb_active_monitor.sv(35) @ 365: uvm_test_top.env.active_agent.active_monitor [uvm_test_top.env.active_agent.active_monitor] apb_seq_item -> psel: 1 | penable : 1 | pwrite : 1 | paddr : 8 | pwdata : 45 | pstrb : 1111 | prdata : 0 | pready : 0 | pslverr : 0
# passive_monitor ...sequence...
# UVM_INFO apb_passive_monitor.sv(31) @ 375: uvm_test_top.env.passive_agent.passive_monitor [uvm_test_top.env.passive_agent.passive_monitor] apb_seq_item -> psel: 0 | penable : 0 | pwrite : 0 | paddr : 0 | pwdata : 0 | pstrb : 0000 | prdata : 0 | pready : 1 | pslverr : 0
# UVM_INFO apb_scoreboard.sv(47) @ 375: uvm_test_top.env.scoreboard [apb_slv_scoreboard] mem : 5 10 15 20 25 30 35 40 45 0 0 0 0 0 0 0 0 0 0 0 0 0 0 0 0 0 0 0 0 0 0 0 0 0 0 0 0 0 0 0 0 0 0 0 0 0 0 0 0 0 0 0 0 0 0 0 0 0 0 0 0 0 0 0 0 0 0 0 0 0 0 0 0 0 0 0 0 0 0 0 0 0 0 0 0 0 0 0 0 0 0 0 0 0 0 0 0 0 0 0 0 0 0 0 0 0 0 0 0 0 0 0 0 0 0 0 0 0 0 0 0 0 0 0 0 0 0 0 0 0 0 0 0 0 0 0 0 0 0 0 0 0 0 0 0 0 0 0 0 0 0 0 0 0 0 0 0 0 0 0 0 0 0 0 0 0 0 0 0 0 0 0 0 0 0 0 0 0 0 0 0 0 0 0 0 0 0 0 0 0 0 0 0 0 0 0 0 0 0 0 0 0 0 0 0 0 0 0 0 0 0 0 0 0 0 0 0 0 0 0 0 0 0 0 0 0 0 0 0 0 0 0 0 0 0 0 0 0 0 0 0 0 0 0 0 0 0 0 0 0 0 0 0 0 0 0
# exp_pslverr : 0
# active_monitor ...sequence...
# UVM_INFO apb_active_monitor.sv(35) @ 385: uvm_test_top.env.active_agent.active_monitor [uvm_test_top.env.active_agent.active_monitor] apb_seq_item -> psel: 1 | penable : 0 | pwrite : 0 | paddr : 4138394047 | pwdata : 1078198973 | pstrb : 1101 | prdata : 0 | pready : 0 | pslverr : 0
# active_monitor ...sequence...
# UVM_INFO apb_active_monitor.sv(35) @ 395: uvm_test_top.env.active_agent.active_monitor [uvm_test_top.env.active_agent.active_monitor] apb_seq_item -> psel: 1 | penable : 0 | pwrite : 1 | paddr : 9 | pwdata : 50 | pstrb : 1111 | prdata : 0 | pready : 0 | pslverr : 0
# active_monitor ...sequence...
# UVM_INFO apb_active_monitor.sv(35) @ 405: uvm_test_top.env.active_agent.active_monitor [uvm_test_top.env.active_agent.active_monitor] apb_seq_item -> psel: 1 | penable : 1 | pwrite : 1 | paddr : 9 | pwdata : 50 | pstrb : 1111 | prdata : 0 | pready : 0 | pslverr : 0
# passive_monitor ...sequence...
# UVM_INFO apb_passive_monitor.sv(31) @ 415: uvm_test_top.env.passive_agent.passive_monitor [uvm_test_top.env.passive_agent.passive_monitor] apb_seq_item -> psel: 0 | penable : 0 | pwrite : 0 | paddr : 0 | pwdata : 0 | pstrb : 0000 | prdata : 0 | pready : 1 | pslverr : 0
# UVM_INFO apb_scoreboard.sv(47) @ 415: uvm_test_top.env.scoreboard [apb_slv_scoreboard] mem : 5 10 15 20 25 30 35 40 45 50 0 0 0 0 0 0 0 0 0 0 0 0 0 0 0 0 0 0 0 0 0 0 0 0 0 0 0 0 0 0 0 0 0 0 0 0 0 0 0 0 0 0 0 0 0 0 0 0 0 0 0 0 0 0 0 0 0 0 0 0 0 0 0 0 0 0 0 0 0 0 0 0 0 0 0 0 0 0 0 0 0 0 0 0 0 0 0 0 0 0 0 0 0 0 0 0 0 0 0 0 0 0 0 0 0 0 0 0 0 0 0 0 0 0 0 0 0 0 0 0 0 0 0 0 0 0 0 0 0 0 0 0 0 0 0 0 0 0 0 0 0 0 0 0 0 0 0 0 0 0 0 0 0 0 0 0 0 0 0 0 0 0 0 0 0 0 0 0 0 0 0 0 0 0 0 0 0 0 0 0 0 0 0 0 0 0 0 0 0 0 0 0 0 0 0 0 0 0 0 0 0 0 0 0 0 0 0 0 0 0 0 0 0 0 0 0 0 0 0 0 0 0 0 0 0 0 0 0 0 0 0 0 0 0 0 0 0 0 0 0 0 0 0 0 0 0
# exp_pslverr : 0
# active_monitor ...sequence...
# UVM_INFO apb_active_monitor.sv(35) @ 425: uvm_test_top.env.active_agent.active_monitor [uvm_test_top.env.active_agent.active_monitor] apb_seq_item -> psel: 1 | penable : 0 | pwrite : 0 | paddr : 908692971 | pwdata : 3640517953 | pstrb : 0000 | prdata : 0 | pready : 0 | pslverr : 0
# active_monitor ...sequence...
# UVM_INFO apb_active_monitor.sv(35) @ 435: uvm_test_top.env.active_agent.active_monitor [uvm_test_top.env.active_agent.active_monitor] apb_seq_item -> psel: 1 | penable : 0 | pwrite : 1 | paddr : 10 | pwdata : 55 | pstrb : 1111 | prdata : 0 | pready : 0 | pslverr : 0
# active_monitor ...sequence...
# UVM_INFO apb_active_monitor.sv(35) @ 445: uvm_test_top.env.active_agent.active_monitor [uvm_test_top.env.active_agent.active_monitor] apb_seq_item -> psel: 1 | penable : 1 | pwrite : 1 | paddr : 10 | pwdata : 55 | pstrb : 1111 | prdata : 0 | pready : 0 | pslverr : 0
# passive_monitor ...sequence...
# UVM_INFO apb_passive_monitor.sv(31) @ 455: uvm_test_top.env.passive_agent.passive_monitor [uvm_test_top.env.passive_agent.passive_monitor] apb_seq_item -> psel: 0 | penable : 0 | pwrite : 0 | paddr : 0 | pwdata : 0 | pstrb : 0000 | prdata : 0 | pready : 1 | pslverr : 0
# UVM_INFO apb_scoreboard.sv(47) @ 455: uvm_test_top.env.scoreboard [apb_slv_scoreboard] mem : 5 10 15 20 25 30 35 40 45 50 55 0 0 0 0 0 0 0 0 0 0 0 0 0 0 0 0 0 0 0 0 0 0 0 0 0 0 0 0 0 0 0 0 0 0 0 0 0 0 0 0 0 0 0 0 0 0 0 0 0 0 0 0 0 0 0 0 0 0 0 0 0 0 0 0 0 0 0 0 0 0 0 0 0 0 0 0 0 0 0 0 0 0 0 0 0 0 0 0 0 0 0 0 0 0 0 0 0 0 0 0 0 0 0 0 0 0 0 0 0 0 0 0 0 0 0 0 0 0 0 0 0 0 0 0 0 0 0 0 0 0 0 0 0 0 0 0 0 0 0 0 0 0 0 0 0 0 0 0 0 0 0 0 0 0 0 0 0 0 0 0 0 0 0 0 0 0 0 0 0 0 0 0 0 0 0 0 0 0 0 0 0 0 0 0 0 0 0 0 0 0 0 0 0 0 0 0 0 0 0 0 0 0 0 0 0 0 0 0 0 0 0 0 0 0 0 0 0 0 0 0 0 0 0 0 0 0 0 0 0 0 0 0 0 0 0 0 0 0 0 0 0 0 0 0 0
# exp_pslverr : 0
# active_monitor ...sequence...
# UVM_INFO apb_active_monitor.sv(35) @ 465: uvm_test_top.env.active_agent.active_monitor [uvm_test_top.env.active_agent.active_monitor] apb_seq_item -> psel: 1 | penable : 0 | pwrite : 1 | paddr : 278608460 | pwdata : 3214252671 | pstrb : 1001 | prdata : 0 | pready : 0 | pslverr : 0
# active_monitor ...sequence...
# UVM_INFO apb_active_monitor.sv(35) @ 475: uvm_test_top.env.active_agent.active_monitor [uvm_test_top.env.active_agent.active_monitor] apb_seq_item -> psel: 1 | penable : 0 | pwrite : 1 | paddr : 11 | pwdata : 60 | pstrb : 1111 | prdata : 0 | pready : 0 | pslverr : 0
# active_monitor ...sequence...
# UVM_INFO apb_active_monitor.sv(35) @ 485: uvm_test_top.env.active_agent.active_monitor [uvm_test_top.env.active_agent.active_monitor] apb_seq_item -> psel: 1 | penable : 1 | pwrite : 1 | paddr : 11 | pwdata : 60 | pstrb : 1111 | prdata : 0 | pready : 0 | pslverr : 0
# passive_monitor ...sequence...
# UVM_INFO apb_passive_monitor.sv(31) @ 495: uvm_test_top.env.passive_agent.passive_monitor [uvm_test_top.env.passive_agent.passive_monitor] apb_seq_item -> psel: 0 | penable : 0 | pwrite : 0 | paddr : 0 | pwdata : 0 | pstrb : 0000 | prdata : 0 | pready : 1 | pslverr : 0
# UVM_INFO apb_scoreboard.sv(47) @ 495: uvm_test_top.env.scoreboard [apb_slv_scoreboard] mem : 5 10 15 20 25 30 35 40 45 50 55 60 0 0 0 0 0 0 0 0 0 0 0 0 0 0 0 0 0 0 0 0 0 0 0 0 0 0 0 0 0 0 0 0 0 0 0 0 0 0 0 0 0 0 0 0 0 0 0 0 0 0 0 0 0 0 0 0 0 0 0 0 0 0 0 0 0 0 0 0 0 0 0 0 0 0 0 0 0 0 0 0 0 0 0 0 0 0 0 0 0 0 0 0 0 0 0 0 0 0 0 0 0 0 0 0 0 0 0 0 0 0 0 0 0 0 0 0 0 0 0 0 0 0 0 0 0 0 0 0 0 0 0 0 0 0 0 0 0 0 0 0 0 0 0 0 0 0 0 0 0 0 0 0 0 0 0 0 0 0 0 0 0 0 0 0 0 0 0 0 0 0 0 0 0 0 0 0 0 0 0 0 0 0 0 0 0 0 0 0 0 0 0 0 0 0 0 0 0 0 0 0 0 0 0 0 0 0 0 0 0 0 0 0 0 0 0 0 0 0 0 0 0 0 0 0 0 0 0 0 0 0 0 0 0 0 0 0 0 0 0 0 0 0 0 0
# exp_pslverr : 0
# active_monitor ...sequence...
# UVM_INFO apb_active_monitor.sv(35) @ 505: uvm_test_top.env.active_agent.active_monitor [uvm_test_top.env.active_agent.active_monitor] apb_seq_item -> psel: 1 | penable : 0 | pwrite : 0 | paddr : 1744886977 | pwdata : 1358104861 | pstrb : 0001 | prdata : 0 | pready : 0 | pslverr : 0
# active_monitor ...sequence...
# UVM_INFO apb_active_monitor.sv(35) @ 515: uvm_test_top.env.active_agent.active_monitor [uvm_test_top.env.active_agent.active_monitor] apb_seq_item -> psel: 1 | penable : 0 | pwrite : 1 | paddr : 12 | pwdata : 65 | pstrb : 1111 | prdata : 0 | pready : 0 | pslverr : 0
# active_monitor ...sequence...
# UVM_INFO apb_active_monitor.sv(35) @ 525: uvm_test_top.env.active_agent.active_monitor [uvm_test_top.env.active_agent.active_monitor] apb_seq_item -> psel: 1 | penable : 1 | pwrite : 1 | paddr : 12 | pwdata : 65 | pstrb : 1111 | prdata : 0 | pready : 0 | pslverr : 0
# passive_monitor ...sequence...
# UVM_INFO apb_passive_monitor.sv(31) @ 535: uvm_test_top.env.passive_agent.passive_monitor [uvm_test_top.env.passive_agent.passive_monitor] apb_seq_item -> psel: 0 | penable : 0 | pwrite : 0 | paddr : 0 | pwdata : 0 | pstrb : 0000 | prdata : 0 | pready : 1 | pslverr : 0
# UVM_INFO apb_scoreboard.sv(47) @ 535: uvm_test_top.env.scoreboard [apb_slv_scoreboard] mem : 5 10 15 20 25 30 35 40 45 50 55 60 65 0 0 0 0 0 0 0 0 0 0 0 0 0 0 0 0 0 0 0 0 0 0 0 0 0 0 0 0 0 0 0 0 0 0 0 0 0 0 0 0 0 0 0 0 0 0 0 0 0 0 0 0 0 0 0 0 0 0 0 0 0 0 0 0 0 0 0 0 0 0 0 0 0 0 0 0 0 0 0 0 0 0 0 0 0 0 0 0 0 0 0 0 0 0 0 0 0 0 0 0 0 0 0 0 0 0 0 0 0 0 0 0 0 0 0 0 0 0 0 0 0 0 0 0 0 0 0 0 0 0 0 0 0 0 0 0 0 0 0 0 0 0 0 0 0 0 0 0 0 0 0 0 0 0 0 0 0 0 0 0 0 0 0 0 0 0 0 0 0 0 0 0 0 0 0 0 0 0 0 0 0 0 0 0 0 0 0 0 0 0 0 0 0 0 0 0 0 0 0 0 0 0 0 0 0 0 0 0 0 0 0 0 0 0 0 0 0 0 0 0 0 0 0 0 0 0 0 0 0 0 0 0 0 0 0 0 0 0 0 0 0 0 0
# exp_pslverr : 0
# active_monitor ...sequence...
# UVM_INFO apb_active_monitor.sv(35) @ 545: uvm_test_top.env.active_agent.active_monitor [uvm_test_top.env.active_agent.active_monitor] apb_seq_item -> psel: 1 | penable : 0 | pwrite : 0 | paddr : 1760191386 | pwdata : 4015089218 | pstrb : 1100 | prdata : 0 | pready : 0 | pslverr : 0
# active_monitor ...sequence...
# UVM_INFO apb_active_monitor.sv(35) @ 555: uvm_test_top.env.active_agent.active_monitor [uvm_test_top.env.active_agent.active_monitor] apb_seq_item -> psel: 1 | penable : 0 | pwrite : 1 | paddr : 13 | pwdata : 70 | pstrb : 1111 | prdata : 0 | pready : 0 | pslverr : 0
# active_monitor ...sequence...
# UVM_INFO apb_active_monitor.sv(35) @ 565: uvm_test_top.env.active_agent.active_monitor [uvm_test_top.env.active_agent.active_monitor] apb_seq_item -> psel: 1 | penable : 1 | pwrite : 1 | paddr : 13 | pwdata : 70 | pstrb : 1111 | prdata : 0 | pready : 0 | pslverr : 0
# passive_monitor ...sequence...
# UVM_INFO apb_passive_monitor.sv(31) @ 575: uvm_test_top.env.passive_agent.passive_monitor [uvm_test_top.env.passive_agent.passive_monitor] apb_seq_item -> psel: 0 | penable : 0 | pwrite : 0 | paddr : 0 | pwdata : 0 | pstrb : 0000 | prdata : 0 | pready : 1 | pslverr : 0
# UVM_INFO apb_scoreboard.sv(47) @ 575: uvm_test_top.env.scoreboard [apb_slv_scoreboard] mem : 5 10 15 20 25 30 35 40 45 50 55 60 65 70 0 0 0 0 0 0 0 0 0 0 0 0 0 0 0 0 0 0 0 0 0 0 0 0 0 0 0 0 0 0 0 0 0 0 0 0 0 0 0 0 0 0 0 0 0 0 0 0 0 0 0 0 0 0 0 0 0 0 0 0 0 0 0 0 0 0 0 0 0 0 0 0 0 0 0 0 0 0 0 0 0 0 0 0 0 0 0 0 0 0 0 0 0 0 0 0 0 0 0 0 0 0 0 0 0 0 0 0 0 0 0 0 0 0 0 0 0 0 0 0 0 0 0 0 0 0 0 0 0 0 0 0 0 0 0 0 0 0 0 0 0 0 0 0 0 0 0 0 0 0 0 0 0 0 0 0 0 0 0 0 0 0 0 0 0 0 0 0 0 0 0 0 0 0 0 0 0 0 0 0 0 0 0 0 0 0 0 0 0 0 0 0 0 0 0 0 0 0 0 0 0 0 0 0 0 0 0 0 0 0 0 0 0 0 0 0 0 0 0 0 0 0 0 0 0 0 0 0 0 0 0 0 0 0 0 0 0 0 0 0 0 0
# exp_pslverr : 0
# active_monitor ...sequence...
# UVM_INFO apb_active_monitor.sv(35) @ 585: uvm_test_top.env.active_agent.active_monitor [uvm_test_top.env.active_agent.active_monitor] apb_seq_item -> psel: 1 | penable : 0 | pwrite : 1 | paddr : 2315586553 | pwdata : 3902433219 | pstrb : 0100 | prdata : 0 | pready : 0 | pslverr : 0
# active_monitor ...sequence...
# UVM_INFO apb_active_monitor.sv(35) @ 595: uvm_test_top.env.active_agent.active_monitor [uvm_test_top.env.active_agent.active_monitor] apb_seq_item -> psel: 1 | penable : 0 | pwrite : 1 | paddr : 14 | pwdata : 75 | pstrb : 1111 | prdata : 0 | pready : 0 | pslverr : 0
# active_monitor ...sequence...
# UVM_INFO apb_active_monitor.sv(35) @ 605: uvm_test_top.env.active_agent.active_monitor [uvm_test_top.env.active_agent.active_monitor] apb_seq_item -> psel: 1 | penable : 1 | pwrite : 1 | paddr : 14 | pwdata : 75 | pstrb : 1111 | prdata : 0 | pready : 0 | pslverr : 0
# passive_monitor ...sequence...
# UVM_INFO apb_passive_monitor.sv(31) @ 615: uvm_test_top.env.passive_agent.passive_monitor [uvm_test_top.env.passive_agent.passive_monitor] apb_seq_item -> psel: 0 | penable : 0 | pwrite : 0 | paddr : 0 | pwdata : 0 | pstrb : 0000 | prdata : 0 | pready : 1 | pslverr : 0
# UVM_INFO apb_scoreboard.sv(47) @ 615: uvm_test_top.env.scoreboard [apb_slv_scoreboard] mem : 5 10 15 20 25 30 35 40 45 50 55 60 65 70 75 0 0 0 0 0 0 0 0 0 0 0 0 0 0 0 0 0 0 0 0 0 0 0 0 0 0 0 0 0 0 0 0 0 0 0 0 0 0 0 0 0 0 0 0 0 0 0 0 0 0 0 0 0 0 0 0 0 0 0 0 0 0 0 0 0 0 0 0 0 0 0 0 0 0 0 0 0 0 0 0 0 0 0 0 0 0 0 0 0 0 0 0 0 0 0 0 0 0 0 0 0 0 0 0 0 0 0 0 0 0 0 0 0 0 0 0 0 0 0 0 0 0 0 0 0 0 0 0 0 0 0 0 0 0 0 0 0 0 0 0 0 0 0 0 0 0 0 0 0 0 0 0 0 0 0 0 0 0 0 0 0 0 0 0 0 0 0 0 0 0 0 0 0 0 0 0 0 0 0 0 0 0 0 0 0 0 0 0 0 0 0 0 0 0 0 0 0 0 0 0 0 0 0 0 0 0 0 0 0 0 0 0 0 0 0 0 0 0 0 0 0 0 0 0 0 0 0 0 0 0 0 0 0 0 0 0 0 0 0 0 0
# exp_pslverr : 0
# active_monitor ...sequence...
# UVM_INFO apb_active_monitor.sv(35) @ 625: uvm_test_top.env.active_agent.active_monitor [uvm_test_top.env.active_agent.active_monitor] apb_seq_item -> psel: 1 | penable : 0 | pwrite : 1 | paddr : 154597576 | pwdata : 3672547440 | pstrb : 1111 | prdata : 0 | pready : 0 | pslverr : 0
# active_monitor ...sequence...
# UVM_INFO apb_active_monitor.sv(35) @ 635: uvm_test_top.env.active_agent.active_monitor [uvm_test_top.env.active_agent.active_monitor] apb_seq_item -> psel: 1 | penable : 0 | pwrite : 1 | paddr : 15 | pwdata : 80 | pstrb : 1111 | prdata : 0 | pready : 0 | pslverr : 0
# active_monitor ...sequence...
# UVM_INFO apb_active_monitor.sv(35) @ 645: uvm_test_top.env.active_agent.active_monitor [uvm_test_top.env.active_agent.active_monitor] apb_seq_item -> psel: 1 | penable : 1 | pwrite : 1 | paddr : 15 | pwdata : 80 | pstrb : 1111 | prdata : 0 | pready : 0 | pslverr : 0
# passive_monitor ...sequence...
# UVM_INFO apb_passive_monitor.sv(31) @ 655: uvm_test_top.env.passive_agent.passive_monitor [uvm_test_top.env.passive_agent.passive_monitor] apb_seq_item -> psel: 0 | penable : 0 | pwrite : 0 | paddr : 0 | pwdata : 0 | pstrb : 0000 | prdata : 0 | pready : 1 | pslverr : 0
# UVM_INFO apb_scoreboard.sv(47) @ 655: uvm_test_top.env.scoreboard [apb_slv_scoreboard] mem : 5 10 15 20 25 30 35 40 45 50 55 60 65 70 75 80 0 0 0 0 0 0 0 0 0 0 0 0 0 0 0 0 0 0 0 0 0 0 0 0 0 0 0 0 0 0 0 0 0 0 0 0 0 0 0 0 0 0 0 0 0 0 0 0 0 0 0 0 0 0 0 0 0 0 0 0 0 0 0 0 0 0 0 0 0 0 0 0 0 0 0 0 0 0 0 0 0 0 0 0 0 0 0 0 0 0 0 0 0 0 0 0 0 0 0 0 0 0 0 0 0 0 0 0 0 0 0 0 0 0 0 0 0 0 0 0 0 0 0 0 0 0 0 0 0 0 0 0 0 0 0 0 0 0 0 0 0 0 0 0 0 0 0 0 0 0 0 0 0 0 0 0 0 0 0 0 0 0 0 0 0 0 0 0 0 0 0 0 0 0 0 0 0 0 0 0 0 0 0 0 0 0 0 0 0 0 0 0 0 0 0 0 0 0 0 0 0 0 0 0 0 0 0 0 0 0 0 0 0 0 0 0 0 0 0 0 0 0 0 0 0 0 0 0 0 0 0 0 0 0 0 0 0 0 0 0
# exp_pslverr : 0
# active_monitor ...sequence...
# UVM_INFO apb_active_monitor.sv(35) @ 665: uvm_test_top.env.active_agent.active_monitor [uvm_test_top.env.active_agent.active_monitor] apb_seq_item -> psel: 1 | penable : 0 | pwrite : 1 | paddr : 2436239637 | pwdata : 1058914782 | pstrb : 1110 | prdata : 0 | pready : 0 | pslverr : 0
# active_monitor ...sequence...
# UVM_INFO apb_active_monitor.sv(35) @ 675: uvm_test_top.env.active_agent.active_monitor [uvm_test_top.env.active_agent.active_monitor] apb_seq_item -> psel: 1 | penable : 0 | pwrite : 1 | paddr : 16 | pwdata : 85 | pstrb : 1111 | prdata : 0 | pready : 0 | pslverr : 0
# active_monitor ...sequence...
# UVM_INFO apb_active_monitor.sv(35) @ 685: uvm_test_top.env.active_agent.active_monitor [uvm_test_top.env.active_agent.active_monitor] apb_seq_item -> psel: 1 | penable : 1 | pwrite : 1 | paddr : 16 | pwdata : 85 | pstrb : 1111 | prdata : 0 | pready : 0 | pslverr : 0
# passive_monitor ...sequence...
# UVM_INFO apb_passive_monitor.sv(31) @ 695: uvm_test_top.env.passive_agent.passive_monitor [uvm_test_top.env.passive_agent.passive_monitor] apb_seq_item -> psel: 0 | penable : 0 | pwrite : 0 | paddr : 0 | pwdata : 0 | pstrb : 0000 | prdata : 0 | pready : 1 | pslverr : 0
# UVM_INFO apb_scoreboard.sv(47) @ 695: uvm_test_top.env.scoreboard [apb_slv_scoreboard] mem : 5 10 15 20 25 30 35 40 45 50 55 60 65 70 75 80 85 0 0 0 0 0 0 0 0 0 0 0 0 0 0 0 0 0 0 0 0 0 0 0 0 0 0 0 0 0 0 0 0 0 0 0 0 0 0 0 0 0 0 0 0 0 0 0 0 0 0 0 0 0 0 0 0 0 0 0 0 0 0 0 0 0 0 0 0 0 0 0 0 0 0 0 0 0 0 0 0 0 0 0 0 0 0 0 0 0 0 0 0 0 0 0 0 0 0 0 0 0 0 0 0 0 0 0 0 0 0 0 0 0 0 0 0 0 0 0 0 0 0 0 0 0 0 0 0 0 0 0 0 0 0 0 0 0 0 0 0 0 0 0 0 0 0 0 0 0 0 0 0 0 0 0 0 0 0 0 0 0 0 0 0 0 0 0 0 0 0 0 0 0 0 0 0 0 0 0 0 0 0 0 0 0 0 0 0 0 0 0 0 0 0 0 0 0 0 0 0 0 0 0 0 0 0 0 0 0 0 0 0 0 0 0 0 0 0 0 0 0 0 0 0 0 0 0 0 0 0 0 0 0 0 0 0 0 0 0
# exp_pslverr : 0
# active_monitor ...sequence...
# UVM_INFO apb_active_monitor.sv(35) @ 705: uvm_test_top.env.active_agent.active_monitor [uvm_test_top.env.active_agent.active_monitor] apb_seq_item -> psel: 1 | penable : 0 | pwrite : 0 | paddr : 1454548895 | pwdata : 4040701958 | pstrb : 0001 | prdata : 0 | pready : 0 | pslverr : 0
# active_monitor ...sequence...
# UVM_INFO apb_active_monitor.sv(35) @ 715: uvm_test_top.env.active_agent.active_monitor [uvm_test_top.env.active_agent.active_monitor] apb_seq_item -> psel: 1 | penable : 0 | pwrite : 1 | paddr : 17 | pwdata : 90 | pstrb : 1111 | prdata : 0 | pready : 0 | pslverr : 0
# active_monitor ...sequence...
# UVM_INFO apb_active_monitor.sv(35) @ 725: uvm_test_top.env.active_agent.active_monitor [uvm_test_top.env.active_agent.active_monitor] apb_seq_item -> psel: 1 | penable : 1 | pwrite : 1 | paddr : 17 | pwdata : 90 | pstrb : 1111 | prdata : 0 | pready : 0 | pslverr : 0
# passive_monitor ...sequence...
# UVM_INFO apb_passive_monitor.sv(31) @ 735: uvm_test_top.env.passive_agent.passive_monitor [uvm_test_top.env.passive_agent.passive_monitor] apb_seq_item -> psel: 0 | penable : 0 | pwrite : 0 | paddr : 0 | pwdata : 0 | pstrb : 0000 | prdata : 0 | pready : 1 | pslverr : 0
# UVM_INFO apb_scoreboard.sv(47) @ 735: uvm_test_top.env.scoreboard [apb_slv_scoreboard] mem : 5 10 15 20 25 30 35 40 45 50 55 60 65 70 75 80 85 90 0 0 0 0 0 0 0 0 0 0 0 0 0 0 0 0 0 0 0 0 0 0 0 0 0 0 0 0 0 0 0 0 0 0 0 0 0 0 0 0 0 0 0 0 0 0 0 0 0 0 0 0 0 0 0 0 0 0 0 0 0 0 0 0 0 0 0 0 0 0 0 0 0 0 0 0 0 0 0 0 0 0 0 0 0 0 0 0 0 0 0 0 0 0 0 0 0 0 0 0 0 0 0 0 0 0 0 0 0 0 0 0 0 0 0 0 0 0 0 0 0 0 0 0 0 0 0 0 0 0 0 0 0 0 0 0 0 0 0 0 0 0 0 0 0 0 0 0 0 0 0 0 0 0 0 0 0 0 0 0 0 0 0 0 0 0 0 0 0 0 0 0 0 0 0 0 0 0 0 0 0 0 0 0 0 0 0 0 0 0 0 0 0 0 0 0 0 0 0 0 0 0 0 0 0 0 0 0 0 0 0 0 0 0 0 0 0 0 0 0 0 0 0 0 0 0 0 0 0 0 0 0 0 0 0 0 0 0
# exp_pslverr : 0
# active_monitor ...sequence...
# UVM_INFO apb_active_monitor.sv(35) @ 745: uvm_test_top.env.active_agent.active_monitor [uvm_test_top.env.active_agent.active_monitor] apb_seq_item -> psel: 1 | penable : 0 | pwrite : 1 | paddr : 3745765728 | pwdata : 3216460874 | pstrb : 1000 | prdata : 0 | pready : 0 | pslverr : 0
# active_monitor ...sequence...
# UVM_INFO apb_active_monitor.sv(35) @ 755: uvm_test_top.env.active_agent.active_monitor [uvm_test_top.env.active_agent.active_monitor] apb_seq_item -> psel: 1 | penable : 0 | pwrite : 1 | paddr : 18 | pwdata : 95 | pstrb : 1111 | prdata : 0 | pready : 0 | pslverr : 0
# active_monitor ...sequence...
# UVM_INFO apb_active_monitor.sv(35) @ 765: uvm_test_top.env.active_agent.active_monitor [uvm_test_top.env.active_agent.active_monitor] apb_seq_item -> psel: 1 | penable : 1 | pwrite : 1 | paddr : 18 | pwdata : 95 | pstrb : 1111 | prdata : 0 | pready : 0 | pslverr : 0
# passive_monitor ...sequence...
# UVM_INFO apb_passive_monitor.sv(31) @ 775: uvm_test_top.env.passive_agent.passive_monitor [uvm_test_top.env.passive_agent.passive_monitor] apb_seq_item -> psel: 0 | penable : 0 | pwrite : 0 | paddr : 0 | pwdata : 0 | pstrb : 0000 | prdata : 0 | pready : 1 | pslverr : 0
# UVM_INFO apb_scoreboard.sv(47) @ 775: uvm_test_top.env.scoreboard [apb_slv_scoreboard] mem : 5 10 15 20 25 30 35 40 45 50 55 60 65 70 75 80 85 90 95 0 0 0 0 0 0 0 0 0 0 0 0 0 0 0 0 0 0 0 0 0 0 0 0 0 0 0 0 0 0 0 0 0 0 0 0 0 0 0 0 0 0 0 0 0 0 0 0 0 0 0 0 0 0 0 0 0 0 0 0 0 0 0 0 0 0 0 0 0 0 0 0 0 0 0 0 0 0 0 0 0 0 0 0 0 0 0 0 0 0 0 0 0 0 0 0 0 0 0 0 0 0 0 0 0 0 0 0 0 0 0 0 0 0 0 0 0 0 0 0 0 0 0 0 0 0 0 0 0 0 0 0 0 0 0 0 0 0 0 0 0 0 0 0 0 0 0 0 0 0 0 0 0 0 0 0 0 0 0 0 0 0 0 0 0 0 0 0 0 0 0 0 0 0 0 0 0 0 0 0 0 0 0 0 0 0 0 0 0 0 0 0 0 0 0 0 0 0 0 0 0 0 0 0 0 0 0 0 0 0 0 0 0 0 0 0 0 0 0 0 0 0 0 0 0 0 0 0 0 0 0 0 0 0 0 0 0
# exp_pslverr : 0
# active_monitor ...sequence...
# UVM_INFO apb_active_monitor.sv(35) @ 785: uvm_test_top.env.active_agent.active_monitor [uvm_test_top.env.active_agent.active_monitor] apb_seq_item -> psel: 1 | penable : 0 | pwrite : 0 | paddr : 1410446327 | pwdata : 608194910 | pstrb : 0001 | prdata : 0 | pready : 0 | pslverr : 0
# active_monitor ...sequence...
# UVM_INFO apb_active_monitor.sv(35) @ 795: uvm_test_top.env.active_agent.active_monitor [uvm_test_top.env.active_agent.active_monitor] apb_seq_item -> psel: 1 | penable : 0 | pwrite : 1 | paddr : 19 | pwdata : 100 | pstrb : 1111 | prdata : 0 | pready : 0 | pslverr : 0
# active_monitor ...sequence...
# UVM_INFO apb_active_monitor.sv(35) @ 805: uvm_test_top.env.active_agent.active_monitor [uvm_test_top.env.active_agent.active_monitor] apb_seq_item -> psel: 1 | penable : 1 | pwrite : 1 | paddr : 19 | pwdata : 100 | pstrb : 1111 | prdata : 0 | pready : 0 | pslverr : 0
# passive_monitor ...sequence...
# UVM_INFO apb_passive_monitor.sv(31) @ 815: uvm_test_top.env.passive_agent.passive_monitor [uvm_test_top.env.passive_agent.passive_monitor] apb_seq_item -> psel: 0 | penable : 0 | pwrite : 0 | paddr : 0 | pwdata : 0 | pstrb : 0000 | prdata : 0 | pready : 1 | pslverr : 0
# UVM_INFO apb_scoreboard.sv(47) @ 815: uvm_test_top.env.scoreboard [apb_slv_scoreboard] mem : 5 10 15 20 25 30 35 40 45 50 55 60 65 70 75 80 85 90 95 100 0 0 0 0 0 0 0 0 0 0 0 0 0 0 0 0 0 0 0 0 0 0 0 0 0 0 0 0 0 0 0 0 0 0 0 0 0 0 0 0 0 0 0 0 0 0 0 0 0 0 0 0 0 0 0 0 0 0 0 0 0 0 0 0 0 0 0 0 0 0 0 0 0 0 0 0 0 0 0 0 0 0 0 0 0 0 0 0 0 0 0 0 0 0 0 0 0 0 0 0 0 0 0 0 0 0 0 0 0 0 0 0 0 0 0 0 0 0 0 0 0 0 0 0 0 0 0 0 0 0 0 0 0 0 0 0 0 0 0 0 0 0 0 0 0 0 0 0 0 0 0 0 0 0 0 0 0 0 0 0 0 0 0 0 0 0 0 0 0 0 0 0 0 0 0 0 0 0 0 0 0 0 0 0 0 0 0 0 0 0 0 0 0 0 0 0 0 0 0 0 0 0 0 0 0 0 0 0 0 0 0 0 0 0 0 0 0 0 0 0 0 0 0 0 0 0 0 0 0 0 0 0 0 0 0 0
# exp_pslverr : 0
# active_monitor ...sequence...
# UVM_INFO apb_active_monitor.sv(35) @ 825: uvm_test_top.env.active_agent.active_monitor [uvm_test_top.env.active_agent.active_monitor] apb_seq_item -> psel: 1 | penable : 0 | pwrite : 0 | paddr : 3896089877 | pwdata : 1160075101 | pstrb : 1001 | prdata : 0 | pready : 0 | pslverr : 0
# active_monitor ...sequence...
# UVM_INFO apb_active_monitor.sv(35) @ 835: uvm_test_top.env.active_agent.active_monitor [uvm_test_top.env.active_agent.active_monitor] apb_seq_item -> psel: 1 | penable : 0 | pwrite : 1 | paddr : 20 | pwdata : 105 | pstrb : 1111 | prdata : 0 | pready : 0 | pslverr : 0
# active_monitor ...sequence...
# UVM_INFO apb_active_monitor.sv(35) @ 845: uvm_test_top.env.active_agent.active_monitor [uvm_test_top.env.active_agent.active_monitor] apb_seq_item -> psel: 1 | penable : 1 | pwrite : 1 | paddr : 20 | pwdata : 105 | pstrb : 1111 | prdata : 0 | pready : 0 | pslverr : 0
# passive_monitor ...sequence...
# UVM_INFO apb_passive_monitor.sv(31) @ 855: uvm_test_top.env.passive_agent.passive_monitor [uvm_test_top.env.passive_agent.passive_monitor] apb_seq_item -> psel: 0 | penable : 0 | pwrite : 0 | paddr : 0 | pwdata : 0 | pstrb : 0000 | prdata : 0 | pready : 1 | pslverr : 0
# UVM_INFO apb_scoreboard.sv(47) @ 855: uvm_test_top.env.scoreboard [apb_slv_scoreboard] mem : 5 10 15 20 25 30 35 40 45 50 55 60 65 70 75 80 85 90 95 100 105 0 0 0 0 0 0 0 0 0 0 0 0 0 0 0 0 0 0 0 0 0 0 0 0 0 0 0 0 0 0 0 0 0 0 0 0 0 0 0 0 0 0 0 0 0 0 0 0 0 0 0 0 0 0 0 0 0 0 0 0 0 0 0 0 0 0 0 0 0 0 0 0 0 0 0 0 0 0 0 0 0 0 0 0 0 0 0 0 0 0 0 0 0 0 0 0 0 0 0 0 0 0 0 0 0 0 0 0 0 0 0 0 0 0 0 0 0 0 0 0 0 0 0 0 0 0 0 0 0 0 0 0 0 0 0 0 0 0 0 0 0 0 0 0 0 0 0 0 0 0 0 0 0 0 0 0 0 0 0 0 0 0 0 0 0 0 0 0 0 0 0 0 0 0 0 0 0 0 0 0 0 0 0 0 0 0 0 0 0 0 0 0 0 0 0 0 0 0 0 0 0 0 0 0 0 0 0 0 0 0 0 0 0 0 0 0 0 0 0 0 0 0 0 0 0 0 0 0 0 0 0 0 0 0 0
# exp_pslverr : 0
# active_monitor ...sequence...
# UVM_INFO apb_active_monitor.sv(35) @ 865: uvm_test_top.env.active_agent.active_monitor [uvm_test_top.env.active_agent.active_monitor] apb_seq_item -> psel: 1 | penable : 0 | pwrite : 0 | paddr : 2680645134 | pwdata : 1078943996 | pstrb : 1000 | prdata : 0 | pready : 0 | pslverr : 0
# active_monitor ...sequence...
# UVM_INFO apb_active_monitor.sv(35) @ 875: uvm_test_top.env.active_agent.active_monitor [uvm_test_top.env.active_agent.active_monitor] apb_seq_item -> psel: 1 | penable : 0 | pwrite : 1 | paddr : 21 | pwdata : 110 | pstrb : 1111 | prdata : 0 | pready : 0 | pslverr : 0
# active_monitor ...sequence...
# UVM_INFO apb_active_monitor.sv(35) @ 885: uvm_test_top.env.active_agent.active_monitor [uvm_test_top.env.active_agent.active_monitor] apb_seq_item -> psel: 1 | penable : 1 | pwrite : 1 | paddr : 21 | pwdata : 110 | pstrb : 1111 | prdata : 0 | pready : 0 | pslverr : 0
# passive_monitor ...sequence...
# UVM_INFO apb_passive_monitor.sv(31) @ 895: uvm_test_top.env.passive_agent.passive_monitor [uvm_test_top.env.passive_agent.passive_monitor] apb_seq_item -> psel: 0 | penable : 0 | pwrite : 0 | paddr : 0 | pwdata : 0 | pstrb : 0000 | prdata : 0 | pready : 1 | pslverr : 0
# UVM_INFO apb_scoreboard.sv(47) @ 895: uvm_test_top.env.scoreboard [apb_slv_scoreboard] mem : 5 10 15 20 25 30 35 40 45 50 55 60 65 70 75 80 85 90 95 100 105 110 0 0 0 0 0 0 0 0 0 0 0 0 0 0 0 0 0 0 0 0 0 0 0 0 0 0 0 0 0 0 0 0 0 0 0 0 0 0 0 0 0 0 0 0 0 0 0 0 0 0 0 0 0 0 0 0 0 0 0 0 0 0 0 0 0 0 0 0 0 0 0 0 0 0 0 0 0 0 0 0 0 0 0 0 0 0 0 0 0 0 0 0 0 0 0 0 0 0 0 0 0 0 0 0 0 0 0 0 0 0 0 0 0 0 0 0 0 0 0 0 0 0 0 0 0 0 0 0 0 0 0 0 0 0 0 0 0 0 0 0 0 0 0 0 0 0 0 0 0 0 0 0 0 0 0 0 0 0 0 0 0 0 0 0 0 0 0 0 0 0 0 0 0 0 0 0 0 0 0 0 0 0 0 0 0 0 0 0 0 0 0 0 0 0 0 0 0 0 0 0 0 0 0 0 0 0 0 0 0 0 0 0 0 0 0 0 0 0 0 0 0 0 0 0 0 0 0 0 0 0 0 0 0 0
# exp_pslverr : 0
# active_monitor ...sequence...
# UVM_INFO apb_active_monitor.sv(35) @ 905: uvm_test_top.env.active_agent.active_monitor [uvm_test_top.env.active_agent.active_monitor] apb_seq_item -> psel: 1 | penable : 0 | pwrite : 1 | paddr : 1557379519 | pwdata : 4212677162 | pstrb : 0111 | prdata : 0 | pready : 0 | pslverr : 0
# active_monitor ...sequence...
# UVM_INFO apb_active_monitor.sv(35) @ 915: uvm_test_top.env.active_agent.active_monitor [uvm_test_top.env.active_agent.active_monitor] apb_seq_item -> psel: 1 | penable : 0 | pwrite : 1 | paddr : 22 | pwdata : 115 | pstrb : 1111 | prdata : 0 | pready : 0 | pslverr : 0
# active_monitor ...sequence...
# UVM_INFO apb_active_monitor.sv(35) @ 925: uvm_test_top.env.active_agent.active_monitor [uvm_test_top.env.active_agent.active_monitor] apb_seq_item -> psel: 1 | penable : 1 | pwrite : 1 | paddr : 22 | pwdata : 115 | pstrb : 1111 | prdata : 0 | pready : 0 | pslverr : 0
# passive_monitor ...sequence...
# UVM_INFO apb_passive_monitor.sv(31) @ 935: uvm_test_top.env.passive_agent.passive_monitor [uvm_test_top.env.passive_agent.passive_monitor] apb_seq_item -> psel: 0 | penable : 0 | pwrite : 0 | paddr : 0 | pwdata : 0 | pstrb : 0000 | prdata : 0 | pready : 1 | pslverr : 0
# UVM_INFO apb_scoreboard.sv(47) @ 935: uvm_test_top.env.scoreboard [apb_slv_scoreboard] mem : 5 10 15 20 25 30 35 40 45 50 55 60 65 70 75 80 85 90 95 100 105 110 115 0 0 0 0 0 0 0 0 0 0 0 0 0 0 0 0 0 0 0 0 0 0 0 0 0 0 0 0 0 0 0 0 0 0 0 0 0 0 0 0 0 0 0 0 0 0 0 0 0 0 0 0 0 0 0 0 0 0 0 0 0 0 0 0 0 0 0 0 0 0 0 0 0 0 0 0 0 0 0 0 0 0 0 0 0 0 0 0 0 0 0 0 0 0 0 0 0 0 0 0 0 0 0 0 0 0 0 0 0 0 0 0 0 0 0 0 0 0 0 0 0 0 0 0 0 0 0 0 0 0 0 0 0 0 0 0 0 0 0 0 0 0 0 0 0 0 0 0 0 0 0 0 0 0 0 0 0 0 0 0 0 0 0 0 0 0 0 0 0 0 0 0 0 0 0 0 0 0 0 0 0 0 0 0 0 0 0 0 0 0 0 0 0 0 0 0 0 0 0 0 0 0 0 0 0 0 0 0 0 0 0 0 0 0 0 0 0 0 0 0 0 0 0 0 0 0 0 0 0 0 0 0 0
# exp_pslverr : 0
# active_monitor ...sequence...
# UVM_INFO apb_active_monitor.sv(35) @ 945: uvm_test_top.env.active_agent.active_monitor [uvm_test_top.env.active_agent.active_monitor] apb_seq_item -> psel: 1 | penable : 0 | pwrite : 0 | paddr : 1377031360 | pwdata : 1077033384 | pstrb : 1011 | prdata : 0 | pready : 0 | pslverr : 0
# active_monitor ...sequence...
# UVM_INFO apb_active_monitor.sv(35) @ 955: uvm_test_top.env.active_agent.active_monitor [uvm_test_top.env.active_agent.active_monitor] apb_seq_item -> psel: 1 | penable : 0 | pwrite : 1 | paddr : 23 | pwdata : 120 | pstrb : 1111 | prdata : 0 | pready : 0 | pslverr : 0
# active_monitor ...sequence...
# UVM_INFO apb_active_monitor.sv(35) @ 965: uvm_test_top.env.active_agent.active_monitor [uvm_test_top.env.active_agent.active_monitor] apb_seq_item -> psel: 1 | penable : 1 | pwrite : 1 | paddr : 23 | pwdata : 120 | pstrb : 1111 | prdata : 0 | pready : 0 | pslverr : 0
# passive_monitor ...sequence...
# UVM_INFO apb_passive_monitor.sv(31) @ 975: uvm_test_top.env.passive_agent.passive_monitor [uvm_test_top.env.passive_agent.passive_monitor] apb_seq_item -> psel: 0 | penable : 0 | pwrite : 0 | paddr : 0 | pwdata : 0 | pstrb : 0000 | prdata : 0 | pready : 1 | pslverr : 0
# UVM_INFO apb_scoreboard.sv(47) @ 975: uvm_test_top.env.scoreboard [apb_slv_scoreboard] mem : 5 10 15 20 25 30 35 40 45 50 55 60 65 70 75 80 85 90 95 100 105 110 115 120 0 0 0 0 0 0 0 0 0 0 0 0 0 0 0 0 0 0 0 0 0 0 0 0 0 0 0 0 0 0 0 0 0 0 0 0 0 0 0 0 0 0 0 0 0 0 0 0 0 0 0 0 0 0 0 0 0 0 0 0 0 0 0 0 0 0 0 0 0 0 0 0 0 0 0 0 0 0 0 0 0 0 0 0 0 0 0 0 0 0 0 0 0 0 0 0 0 0 0 0 0 0 0 0 0 0 0 0 0 0 0 0 0 0 0 0 0 0 0 0 0 0 0 0 0 0 0 0 0 0 0 0 0 0 0 0 0 0 0 0 0 0 0 0 0 0 0 0 0 0 0 0 0 0 0 0 0 0 0 0 0 0 0 0 0 0 0 0 0 0 0 0 0 0 0 0 0 0 0 0 0 0 0 0 0 0 0 0 0 0 0 0 0 0 0 0 0 0 0 0 0 0 0 0 0 0 0 0 0 0 0 0 0 0 0 0 0 0 0 0 0 0 0 0 0 0 0 0 0 0 0 0
# exp_pslverr : 0
# active_monitor ...sequence...
# UVM_INFO apb_active_monitor.sv(35) @ 985: uvm_test_top.env.active_agent.active_monitor [uvm_test_top.env.active_agent.active_monitor] apb_seq_item -> psel: 1 | penable : 0 | pwrite : 0 | paddr : 4080376440 | pwdata : 2736002098 | pstrb : 0100 | prdata : 0 | pready : 0 | pslverr : 0
# active_monitor ...sequence...
# UVM_INFO apb_active_monitor.sv(35) @ 995: uvm_test_top.env.active_agent.active_monitor [uvm_test_top.env.active_agent.active_monitor] apb_seq_item -> psel: 1 | penable : 0 | pwrite : 1 | paddr : 24 | pwdata : 125 | pstrb : 1111 | prdata : 0 | pready : 0 | pslverr : 0
# active_monitor ...sequence...
# UVM_INFO apb_active_monitor.sv(35) @ 1005: uvm_test_top.env.active_agent.active_monitor [uvm_test_top.env.active_agent.active_monitor] apb_seq_item -> psel: 1 | penable : 1 | pwrite : 1 | paddr : 24 | pwdata : 125 | pstrb : 1111 | prdata : 0 | pready : 0 | pslverr : 0
# passive_monitor ...sequence...
# UVM_INFO apb_passive_monitor.sv(31) @ 1015: uvm_test_top.env.passive_agent.passive_monitor [uvm_test_top.env.passive_agent.passive_monitor] apb_seq_item -> psel: 0 | penable : 0 | pwrite : 0 | paddr : 0 | pwdata : 0 | pstrb : 0000 | prdata : 0 | pready : 1 | pslverr : 0
# UVM_INFO apb_scoreboard.sv(47) @ 1015: uvm_test_top.env.scoreboard [apb_slv_scoreboard] mem : 5 10 15 20 25 30 35 40 45 50 55 60 65 70 75 80 85 90 95 100 105 110 115 120 125 0 0 0 0 0 0 0 0 0 0 0 0 0 0 0 0 0 0 0 0 0 0 0 0 0 0 0 0 0 0 0 0 0 0 0 0 0 0 0 0 0 0 0 0 0 0 0 0 0 0 0 0 0 0 0 0 0 0 0 0 0 0 0 0 0 0 0 0 0 0 0 0 0 0 0 0 0 0 0 0 0 0 0 0 0 0 0 0 0 0 0 0 0 0 0 0 0 0 0 0 0 0 0 0 0 0 0 0 0 0 0 0 0 0 0 0 0 0 0 0 0 0 0 0 0 0 0 0 0 0 0 0 0 0 0 0 0 0 0 0 0 0 0 0 0 0 0 0 0 0 0 0 0 0 0 0 0 0 0 0 0 0 0 0 0 0 0 0 0 0 0 0 0 0 0 0 0 0 0 0 0 0 0 0 0 0 0 0 0 0 0 0 0 0 0 0 0 0 0 0 0 0 0 0 0 0 0 0 0 0 0 0 0 0 0 0 0 0 0 0 0 0 0 0 0 0 0 0 0 0 0
# exp_pslverr : 0
# active_monitor ...sequence...
# UVM_INFO apb_active_monitor.sv(35) @ 1025: uvm_test_top.env.active_agent.active_monitor [uvm_test_top.env.active_agent.active_monitor] apb_seq_item -> psel: 1 | penable : 0 | pwrite : 1 | paddr : 717025843 | pwdata : 2787031720 | pstrb : 1111 | prdata : 0 | pready : 0 | pslverr : 0
# active_monitor ...sequence...
# UVM_INFO apb_active_monitor.sv(35) @ 1035: uvm_test_top.env.active_agent.active_monitor [uvm_test_top.env.active_agent.active_monitor] apb_seq_item -> psel: 1 | penable : 0 | pwrite : 1 | paddr : 25 | pwdata : 130 | pstrb : 1111 | prdata : 0 | pready : 0 | pslverr : 0
# active_monitor ...sequence...
# UVM_INFO apb_active_monitor.sv(35) @ 1045: uvm_test_top.env.active_agent.active_monitor [uvm_test_top.env.active_agent.active_monitor] apb_seq_item -> psel: 1 | penable : 1 | pwrite : 1 | paddr : 25 | pwdata : 130 | pstrb : 1111 | prdata : 0 | pready : 0 | pslverr : 0
# passive_monitor ...sequence...
# UVM_INFO apb_passive_monitor.sv(31) @ 1055: uvm_test_top.env.passive_agent.passive_monitor [uvm_test_top.env.passive_agent.passive_monitor] apb_seq_item -> psel: 0 | penable : 0 | pwrite : 0 | paddr : 0 | pwdata : 0 | pstrb : 0000 | prdata : 0 | pready : 1 | pslverr : 0
# UVM_INFO apb_scoreboard.sv(47) @ 1055: uvm_test_top.env.scoreboard [apb_slv_scoreboard] mem : 5 10 15 20 25 30 35 40 45 50 55 60 65 70 75 80 85 90 95 100 105 110 115 120 125 130 0 0 0 0 0 0 0 0 0 0 0 0 0 0 0 0 0 0 0 0 0 0 0 0 0 0 0 0 0 0 0 0 0 0 0 0 0 0 0 0 0 0 0 0 0 0 0 0 0 0 0 0 0 0 0 0 0 0 0 0 0 0 0 0 0 0 0 0 0 0 0 0 0 0 0 0 0 0 0 0 0 0 0 0 0 0 0 0 0 0 0 0 0 0 0 0 0 0 0 0 0 0 0 0 0 0 0 0 0 0 0 0 0 0 0 0 0 0 0 0 0 0 0 0 0 0 0 0 0 0 0 0 0 0 0 0 0 0 0 0 0 0 0 0 0 0 0 0 0 0 0 0 0 0 0 0 0 0 0 0 0 0 0 0 0 0 0 0 0 0 0 0 0 0 0 0 0 0 0 0 0 0 0 0 0 0 0 0 0 0 0 0 0 0 0 0 0 0 0 0 0 0 0 0 0 0 0 0 0 0 0 0 0 0 0 0 0 0 0 0 0 0 0 0 0 0 0 0 0 0
# exp_pslverr : 0
# active_monitor ...sequence...
# UVM_INFO apb_active_monitor.sv(35) @ 1065: uvm_test_top.env.active_agent.active_monitor [uvm_test_top.env.active_agent.active_monitor] apb_seq_item -> psel: 1 | penable : 0 | pwrite : 1 | paddr : 4064635035 | pwdata : 4128086422 | pstrb : 1010 | prdata : 0 | pready : 0 | pslverr : 0
# active_monitor ...sequence...
# UVM_INFO apb_active_monitor.sv(35) @ 1075: uvm_test_top.env.active_agent.active_monitor [uvm_test_top.env.active_agent.active_monitor] apb_seq_item -> psel: 1 | penable : 0 | pwrite : 1 | paddr : 26 | pwdata : 135 | pstrb : 1111 | prdata : 0 | pready : 0 | pslverr : 0
# active_monitor ...sequence...
# UVM_INFO apb_active_monitor.sv(35) @ 1085: uvm_test_top.env.active_agent.active_monitor [uvm_test_top.env.active_agent.active_monitor] apb_seq_item -> psel: 1 | penable : 1 | pwrite : 1 | paddr : 26 | pwdata : 135 | pstrb : 1111 | prdata : 0 | pready : 0 | pslverr : 0
# passive_monitor ...sequence...
# UVM_INFO apb_passive_monitor.sv(31) @ 1095: uvm_test_top.env.passive_agent.passive_monitor [uvm_test_top.env.passive_agent.passive_monitor] apb_seq_item -> psel: 0 | penable : 0 | pwrite : 0 | paddr : 0 | pwdata : 0 | pstrb : 0000 | prdata : 0 | pready : 1 | pslverr : 0
# UVM_INFO apb_scoreboard.sv(47) @ 1095: uvm_test_top.env.scoreboard [apb_slv_scoreboard] mem : 5 10 15 20 25 30 35 40 45 50 55 60 65 70 75 80 85 90 95 100 105 110 115 120 125 130 135 0 0 0 0 0 0 0 0 0 0 0 0 0 0 0 0 0 0 0 0 0 0 0 0 0 0 0 0 0 0 0 0 0 0 0 0 0 0 0 0 0 0 0 0 0 0 0 0 0 0 0 0 0 0 0 0 0 0 0 0 0 0 0 0 0 0 0 0 0 0 0 0 0 0 0 0 0 0 0 0 0 0 0 0 0 0 0 0 0 0 0 0 0 0 0 0 0 0 0 0 0 0 0 0 0 0 0 0 0 0 0 0 0 0 0 0 0 0 0 0 0 0 0 0 0 0 0 0 0 0 0 0 0 0 0 0 0 0 0 0 0 0 0 0 0 0 0 0 0 0 0 0 0 0 0 0 0 0 0 0 0 0 0 0 0 0 0 0 0 0 0 0 0 0 0 0 0 0 0 0 0 0 0 0 0 0 0 0 0 0 0 0 0 0 0 0 0 0 0 0 0 0 0 0 0 0 0 0 0 0 0 0 0 0 0 0 0 0 0 0 0 0 0 0 0 0 0 0 0
# exp_pslverr : 0
# active_monitor ...sequence...
# UVM_INFO apb_active_monitor.sv(35) @ 1105: uvm_test_top.env.active_agent.active_monitor [uvm_test_top.env.active_agent.active_monitor] apb_seq_item -> psel: 1 | penable : 0 | pwrite : 1 | paddr : 1573457256 | pwdata : 4240808179 | pstrb : 0111 | prdata : 0 | pready : 0 | pslverr : 0
# active_monitor ...sequence...
# UVM_INFO apb_active_monitor.sv(35) @ 1115: uvm_test_top.env.active_agent.active_monitor [uvm_test_top.env.active_agent.active_monitor] apb_seq_item -> psel: 1 | penable : 0 | pwrite : 1 | paddr : 27 | pwdata : 140 | pstrb : 1111 | prdata : 0 | pready : 0 | pslverr : 0
# active_monitor ...sequence...
# UVM_INFO apb_active_monitor.sv(35) @ 1125: uvm_test_top.env.active_agent.active_monitor [uvm_test_top.env.active_agent.active_monitor] apb_seq_item -> psel: 1 | penable : 1 | pwrite : 1 | paddr : 27 | pwdata : 140 | pstrb : 1111 | prdata : 0 | pready : 0 | pslverr : 0
# passive_monitor ...sequence...
# UVM_INFO apb_passive_monitor.sv(31) @ 1135: uvm_test_top.env.passive_agent.passive_monitor [uvm_test_top.env.passive_agent.passive_monitor] apb_seq_item -> psel: 0 | penable : 0 | pwrite : 0 | paddr : 0 | pwdata : 0 | pstrb : 0000 | prdata : 0 | pready : 1 | pslverr : 0
# UVM_INFO apb_scoreboard.sv(47) @ 1135: uvm_test_top.env.scoreboard [apb_slv_scoreboard] mem : 5 10 15 20 25 30 35 40 45 50 55 60 65 70 75 80 85 90 95 100 105 110 115 120 125 130 135 140 0 0 0 0 0 0 0 0 0 0 0 0 0 0 0 0 0 0 0 0 0 0 0 0 0 0 0 0 0 0 0 0 0 0 0 0 0 0 0 0 0 0 0 0 0 0 0 0 0 0 0 0 0 0 0 0 0 0 0 0 0 0 0 0 0 0 0 0 0 0 0 0 0 0 0 0 0 0 0 0 0 0 0 0 0 0 0 0 0 0 0 0 0 0 0 0 0 0 0 0 0 0 0 0 0 0 0 0 0 0 0 0 0 0 0 0 0 0 0 0 0 0 0 0 0 0 0 0 0 0 0 0 0 0 0 0 0 0 0 0 0 0 0 0 0 0 0 0 0 0 0 0 0 0 0 0 0 0 0 0 0 0 0 0 0 0 0 0 0 0 0 0 0 0 0 0 0 0 0 0 0 0 0 0 0 0 0 0 0 0 0 0 0 0 0 0 0 0 0 0 0 0 0 0 0 0 0 0 0 0 0 0 0 0 0 0 0 0 0 0 0 0 0 0 0 0 0 0
# exp_pslverr : 0
# active_monitor ...sequence...
# UVM_INFO apb_active_monitor.sv(35) @ 1145: uvm_test_top.env.active_agent.active_monitor [uvm_test_top.env.active_agent.active_monitor] apb_seq_item -> psel: 1 | penable : 0 | pwrite : 1 | paddr : 3234012327 | pwdata : 3074208627 | pstrb : 0001 | prdata : 0 | pready : 0 | pslverr : 0
# active_monitor ...sequence...
# UVM_INFO apb_active_monitor.sv(35) @ 1155: uvm_test_top.env.active_agent.active_monitor [uvm_test_top.env.active_agent.active_monitor] apb_seq_item -> psel: 1 | penable : 0 | pwrite : 1 | paddr : 28 | pwdata : 145 | pstrb : 1111 | prdata : 0 | pready : 0 | pslverr : 0
# active_monitor ...sequence...
# UVM_INFO apb_active_monitor.sv(35) @ 1165: uvm_test_top.env.active_agent.active_monitor [uvm_test_top.env.active_agent.active_monitor] apb_seq_item -> psel: 1 | penable : 1 | pwrite : 1 | paddr : 28 | pwdata : 145 | pstrb : 1111 | prdata : 0 | pready : 0 | pslverr : 0
# passive_monitor ...sequence...
# UVM_INFO apb_passive_monitor.sv(31) @ 1175: uvm_test_top.env.passive_agent.passive_monitor [uvm_test_top.env.passive_agent.passive_monitor] apb_seq_item -> psel: 0 | penable : 0 | pwrite : 0 | paddr : 0 | pwdata : 0 | pstrb : 0000 | prdata : 0 | pready : 1 | pslverr : 0
# UVM_INFO apb_scoreboard.sv(47) @ 1175: uvm_test_top.env.scoreboard [apb_slv_scoreboard] mem : 5 10 15 20 25 30 35 40 45 50 55 60 65 70 75 80 85 90 95 100 105 110 115 120 125 130 135 140 145 0 0 0 0 0 0 0 0 0 0 0 0 0 0 0 0 0 0 0 0 0 0 0 0 0 0 0 0 0 0 0 0 0 0 0 0 0 0 0 0 0 0 0 0 0 0 0 0 0 0 0 0 0 0 0 0 0 0 0 0 0 0 0 0 0 0 0 0 0 0 0 0 0 0 0 0 0 0 0 0 0 0 0 0 0 0 0 0 0 0 0 0 0 0 0 0 0 0 0 0 0 0 0 0 0 0 0 0 0 0 0 0 0 0 0 0 0 0 0 0 0 0 0 0 0 0 0 0 0 0 0 0 0 0 0 0 0 0 0 0 0 0 0 0 0 0 0 0 0 0 0 0 0 0 0 0 0 0 0 0 0 0 0 0 0 0 0 0 0 0 0 0 0 0 0 0 0 0 0 0 0 0 0 0 0 0 0 0 0 0 0 0 0 0 0 0 0 0 0 0 0 0 0 0 0 0 0 0 0 0 0 0 0 0 0 0 0 0 0 0 0 0 0 0 0 0 0
# exp_pslverr : 0
# active_monitor ...sequence...
# UVM_INFO apb_active_monitor.sv(35) @ 1185: uvm_test_top.env.active_agent.active_monitor [uvm_test_top.env.active_agent.active_monitor] apb_seq_item -> psel: 1 | penable : 0 | pwrite : 0 | paddr : 4115119929 | pwdata : 1712873382 | pstrb : 1110 | prdata : 0 | pready : 0 | pslverr : 0
# active_monitor ...sequence...
# UVM_INFO apb_active_monitor.sv(35) @ 1195: uvm_test_top.env.active_agent.active_monitor [uvm_test_top.env.active_agent.active_monitor] apb_seq_item -> psel: 1 | penable : 0 | pwrite : 1 | paddr : 29 | pwdata : 150 | pstrb : 1111 | prdata : 0 | pready : 0 | pslverr : 0
# active_monitor ...sequence...
# UVM_INFO apb_active_monitor.sv(35) @ 1205: uvm_test_top.env.active_agent.active_monitor [uvm_test_top.env.active_agent.active_monitor] apb_seq_item -> psel: 1 | penable : 1 | pwrite : 1 | paddr : 29 | pwdata : 150 | pstrb : 1111 | prdata : 0 | pready : 0 | pslverr : 0
# passive_monitor ...sequence...
# UVM_INFO apb_passive_monitor.sv(31) @ 1215: uvm_test_top.env.passive_agent.passive_monitor [uvm_test_top.env.passive_agent.passive_monitor] apb_seq_item -> psel: 0 | penable : 0 | pwrite : 0 | paddr : 0 | pwdata : 0 | pstrb : 0000 | prdata : 0 | pready : 1 | pslverr : 0
# UVM_INFO apb_scoreboard.sv(47) @ 1215: uvm_test_top.env.scoreboard [apb_slv_scoreboard] mem : 5 10 15 20 25 30 35 40 45 50 55 60 65 70 75 80 85 90 95 100 105 110 115 120 125 130 135 140 145 150 0 0 0 0 0 0 0 0 0 0 0 0 0 0 0 0 0 0 0 0 0 0 0 0 0 0 0 0 0 0 0 0 0 0 0 0 0 0 0 0 0 0 0 0 0 0 0 0 0 0 0 0 0 0 0 0 0 0 0 0 0 0 0 0 0 0 0 0 0 0 0 0 0 0 0 0 0 0 0 0 0 0 0 0 0 0 0 0 0 0 0 0 0 0 0 0 0 0 0 0 0 0 0 0 0 0 0 0 0 0 0 0 0 0 0 0 0 0 0 0 0 0 0 0 0 0 0 0 0 0 0 0 0 0 0 0 0 0 0 0 0 0 0 0 0 0 0 0 0 0 0 0 0 0 0 0 0 0 0 0 0 0 0 0 0 0 0 0 0 0 0 0 0 0 0 0 0 0 0 0 0 0 0 0 0 0 0 0 0 0 0 0 0 0 0 0 0 0 0 0 0 0 0 0 0 0 0 0 0 0 0 0 0 0 0 0 0 0 0 0 0 0 0 0 0 0
# exp_pslverr : 0
# active_monitor ...sequence...
# UVM_INFO apb_active_monitor.sv(35) @ 1225: uvm_test_top.env.active_agent.active_monitor [uvm_test_top.env.active_agent.active_monitor] apb_seq_item -> psel: 1 | penable : 0 | pwrite : 1 | paddr : 3612587197 | pwdata : 337165162 | pstrb : 0101 | prdata : 0 | pready : 0 | pslverr : 0
# active_monitor ...sequence...
# UVM_INFO apb_active_monitor.sv(35) @ 1235: uvm_test_top.env.active_agent.active_monitor [uvm_test_top.env.active_agent.active_monitor] apb_seq_item -> psel: 1 | penable : 0 | pwrite : 1 | paddr : 30 | pwdata : 155 | pstrb : 1111 | prdata : 0 | pready : 0 | pslverr : 0
# active_monitor ...sequence...
# UVM_INFO apb_active_monitor.sv(35) @ 1245: uvm_test_top.env.active_agent.active_monitor [uvm_test_top.env.active_agent.active_monitor] apb_seq_item -> psel: 1 | penable : 1 | pwrite : 1 | paddr : 30 | pwdata : 155 | pstrb : 1111 | prdata : 0 | pready : 0 | pslverr : 0
# passive_monitor ...sequence...
# UVM_INFO apb_passive_monitor.sv(31) @ 1255: uvm_test_top.env.passive_agent.passive_monitor [uvm_test_top.env.passive_agent.passive_monitor] apb_seq_item -> psel: 0 | penable : 0 | pwrite : 0 | paddr : 0 | pwdata : 0 | pstrb : 0000 | prdata : 0 | pready : 1 | pslverr : 0
# UVM_INFO apb_scoreboard.sv(47) @ 1255: uvm_test_top.env.scoreboard [apb_slv_scoreboard] mem : 5 10 15 20 25 30 35 40 45 50 55 60 65 70 75 80 85 90 95 100 105 110 115 120 125 130 135 140 145 150 155 0 0 0 0 0 0 0 0 0 0 0 0 0 0 0 0 0 0 0 0 0 0 0 0 0 0 0 0 0 0 0 0 0 0 0 0 0 0 0 0 0 0 0 0 0 0 0 0 0 0 0 0 0 0 0 0 0 0 0 0 0 0 0 0 0 0 0 0 0 0 0 0 0 0 0 0 0 0 0 0 0 0 0 0 0 0 0 0 0 0 0 0 0 0 0 0 0 0 0 0 0 0 0 0 0 0 0 0 0 0 0 0 0 0 0 0 0 0 0 0 0 0 0 0 0 0 0 0 0 0 0 0 0 0 0 0 0 0 0 0 0 0 0 0 0 0 0 0 0 0 0 0 0 0 0 0 0 0 0 0 0 0 0 0 0 0 0 0 0 0 0 0 0 0 0 0 0 0 0 0 0 0 0 0 0 0 0 0 0 0 0 0 0 0 0 0 0 0 0 0 0 0 0 0 0 0 0 0 0 0 0 0 0 0 0 0 0 0 0 0 0 0 0 0 0
# exp_pslverr : 0
# active_monitor ...sequence...
# UVM_INFO apb_active_monitor.sv(35) @ 1265: uvm_test_top.env.active_agent.active_monitor [uvm_test_top.env.active_agent.active_monitor] apb_seq_item -> psel: 1 | penable : 0 | pwrite : 0 | paddr : 2230111163 | pwdata : 1624505139 | pstrb : 0101 | prdata : 0 | pready : 0 | pslverr : 0
# active_monitor ...sequence...
# UVM_INFO apb_active_monitor.sv(35) @ 1275: uvm_test_top.env.active_agent.active_monitor [uvm_test_top.env.active_agent.active_monitor] apb_seq_item -> psel: 1 | penable : 0 | pwrite : 1 | paddr : 31 | pwdata : 160 | pstrb : 1111 | prdata : 0 | pready : 0 | pslverr : 0
# active_monitor ...sequence...
# UVM_INFO apb_active_monitor.sv(35) @ 1285: uvm_test_top.env.active_agent.active_monitor [uvm_test_top.env.active_agent.active_monitor] apb_seq_item -> psel: 1 | penable : 1 | pwrite : 1 | paddr : 31 | pwdata : 160 | pstrb : 1111 | prdata : 0 | pready : 0 | pslverr : 0
# passive_monitor ...sequence...
# UVM_INFO apb_passive_monitor.sv(31) @ 1295: uvm_test_top.env.passive_agent.passive_monitor [uvm_test_top.env.passive_agent.passive_monitor] apb_seq_item -> psel: 0 | penable : 0 | pwrite : 0 | paddr : 0 | pwdata : 0 | pstrb : 0000 | prdata : 0 | pready : 1 | pslverr : 0
# UVM_INFO apb_scoreboard.sv(47) @ 1295: uvm_test_top.env.scoreboard [apb_slv_scoreboard] mem : 5 10 15 20 25 30 35 40 45 50 55 60 65 70 75 80 85 90 95 100 105 110 115 120 125 130 135 140 145 150 155 160 0 0 0 0 0 0 0 0 0 0 0 0 0 0 0 0 0 0 0 0 0 0 0 0 0 0 0 0 0 0 0 0 0 0 0 0 0 0 0 0 0 0 0 0 0 0 0 0 0 0 0 0 0 0 0 0 0 0 0 0 0 0 0 0 0 0 0 0 0 0 0 0 0 0 0 0 0 0 0 0 0 0 0 0 0 0 0 0 0 0 0 0 0 0 0 0 0 0 0 0 0 0 0 0 0 0 0 0 0 0 0 0 0 0 0 0 0 0 0 0 0 0 0 0 0 0 0 0 0 0 0 0 0 0 0 0 0 0 0 0 0 0 0 0 0 0 0 0 0 0 0 0 0 0 0 0 0 0 0 0 0 0 0 0 0 0 0 0 0 0 0 0 0 0 0 0 0 0 0 0 0 0 0 0 0 0 0 0 0 0 0 0 0 0 0 0 0 0 0 0 0 0 0 0 0 0 0 0 0 0 0 0 0 0 0 0 0 0 0 0 0 0 0 0
# exp_pslverr : 0
# active_monitor ...sequence...
# UVM_INFO apb_active_monitor.sv(35) @ 1305: uvm_test_top.env.active_agent.active_monitor [uvm_test_top.env.active_agent.active_monitor] apb_seq_item -> psel: 1 | penable : 0 | pwrite : 0 | paddr : 920829564 | pwdata : 3668328279 | pstrb : 0100 | prdata : 0 | pready : 0 | pslverr : 0
# active_monitor ...sequence...
# UVM_INFO apb_active_monitor.sv(35) @ 1315: uvm_test_top.env.active_agent.active_monitor [uvm_test_top.env.active_agent.active_monitor] apb_seq_item -> psel: 1 | penable : 0 | pwrite : 1 | paddr : 32 | pwdata : 165 | pstrb : 1111 | prdata : 0 | pready : 0 | pslverr : 0
# active_monitor ...sequence...
# UVM_INFO apb_active_monitor.sv(35) @ 1325: uvm_test_top.env.active_agent.active_monitor [uvm_test_top.env.active_agent.active_monitor] apb_seq_item -> psel: 1 | penable : 1 | pwrite : 1 | paddr : 32 | pwdata : 165 | pstrb : 1111 | prdata : 0 | pready : 0 | pslverr : 0
# passive_monitor ...sequence...
# UVM_INFO apb_passive_monitor.sv(31) @ 1335: uvm_test_top.env.passive_agent.passive_monitor [uvm_test_top.env.passive_agent.passive_monitor] apb_seq_item -> psel: 0 | penable : 0 | pwrite : 0 | paddr : 0 | pwdata : 0 | pstrb : 0000 | prdata : 0 | pready : 1 | pslverr : 0
# UVM_INFO apb_scoreboard.sv(47) @ 1335: uvm_test_top.env.scoreboard [apb_slv_scoreboard] mem : 5 10 15 20 25 30 35 40 45 50 55 60 65 70 75 80 85 90 95 100 105 110 115 120 125 130 135 140 145 150 155 160 165 0 0 0 0 0 0 0 0 0 0 0 0 0 0 0 0 0 0 0 0 0 0 0 0 0 0 0 0 0 0 0 0 0 0 0 0 0 0 0 0 0 0 0 0 0 0 0 0 0 0 0 0 0 0 0 0 0 0 0 0 0 0 0 0 0 0 0 0 0 0 0 0 0 0 0 0 0 0 0 0 0 0 0 0 0 0 0 0 0 0 0 0 0 0 0 0 0 0 0 0 0 0 0 0 0 0 0 0 0 0 0 0 0 0 0 0 0 0 0 0 0 0 0 0 0 0 0 0 0 0 0 0 0 0 0 0 0 0 0 0 0 0 0 0 0 0 0 0 0 0 0 0 0 0 0 0 0 0 0 0 0 0 0 0 0 0 0 0 0 0 0 0 0 0 0 0 0 0 0 0 0 0 0 0 0 0 0 0 0 0 0 0 0 0 0 0 0 0 0 0 0 0 0 0 0 0 0 0 0 0 0 0 0 0 0 0 0 0 0 0 0 0 0
# exp_pslverr : 0
# active_monitor ...sequence...
# UVM_INFO apb_active_monitor.sv(35) @ 1345: uvm_test_top.env.active_agent.active_monitor [uvm_test_top.env.active_agent.active_monitor] apb_seq_item -> psel: 1 | penable : 0 | pwrite : 1 | paddr : 1324206041 | pwdata : 2820600340 | pstrb : 1110 | prdata : 0 | pready : 0 | pslverr : 0
# active_monitor ...sequence...
# UVM_INFO apb_active_monitor.sv(35) @ 1355: uvm_test_top.env.active_agent.active_monitor [uvm_test_top.env.active_agent.active_monitor] apb_seq_item -> psel: 1 | penable : 0 | pwrite : 1 | paddr : 33 | pwdata : 170 | pstrb : 1111 | prdata : 0 | pready : 0 | pslverr : 0
# active_monitor ...sequence...
# UVM_INFO apb_active_monitor.sv(35) @ 1365: uvm_test_top.env.active_agent.active_monitor [uvm_test_top.env.active_agent.active_monitor] apb_seq_item -> psel: 1 | penable : 1 | pwrite : 1 | paddr : 33 | pwdata : 170 | pstrb : 1111 | prdata : 0 | pready : 0 | pslverr : 0
# passive_monitor ...sequence...
# UVM_INFO apb_passive_monitor.sv(31) @ 1375: uvm_test_top.env.passive_agent.passive_monitor [uvm_test_top.env.passive_agent.passive_monitor] apb_seq_item -> psel: 0 | penable : 0 | pwrite : 0 | paddr : 0 | pwdata : 0 | pstrb : 0000 | prdata : 0 | pready : 1 | pslverr : 0
# UVM_INFO apb_scoreboard.sv(47) @ 1375: uvm_test_top.env.scoreboard [apb_slv_scoreboard] mem : 5 10 15 20 25 30 35 40 45 50 55 60 65 70 75 80 85 90 95 100 105 110 115 120 125 130 135 140 145 150 155 160 165 170 0 0 0 0 0 0 0 0 0 0 0 0 0 0 0 0 0 0 0 0 0 0 0 0 0 0 0 0 0 0 0 0 0 0 0 0 0 0 0 0 0 0 0 0 0 0 0 0 0 0 0 0 0 0 0 0 0 0 0 0 0 0 0 0 0 0 0 0 0 0 0 0 0 0 0 0 0 0 0 0 0 0 0 0 0 0 0 0 0 0 0 0 0 0 0 0 0 0 0 0 0 0 0 0 0 0 0 0 0 0 0 0 0 0 0 0 0 0 0 0 0 0 0 0 0 0 0 0 0 0 0 0 0 0 0 0 0 0 0 0 0 0 0 0 0 0 0 0 0 0 0 0 0 0 0 0 0 0 0 0 0 0 0 0 0 0 0 0 0 0 0 0 0 0 0 0 0 0 0 0 0 0 0 0 0 0 0 0 0 0 0 0 0 0 0 0 0 0 0 0 0 0 0 0 0 0 0 0 0 0 0 0 0 0 0 0 0 0 0 0 0 0
# exp_pslverr : 0
# active_monitor ...sequence...
# UVM_INFO apb_active_monitor.sv(35) @ 1385: uvm_test_top.env.active_agent.active_monitor [uvm_test_top.env.active_agent.active_monitor] apb_seq_item -> psel: 1 | penable : 0 | pwrite : 1 | paddr : 2053440326 | pwdata : 383564733 | pstrb : 0011 | prdata : 0 | pready : 0 | pslverr : 0
# active_monitor ...sequence...
# UVM_INFO apb_active_monitor.sv(35) @ 1395: uvm_test_top.env.active_agent.active_monitor [uvm_test_top.env.active_agent.active_monitor] apb_seq_item -> psel: 1 | penable : 0 | pwrite : 1 | paddr : 34 | pwdata : 175 | pstrb : 1111 | prdata : 0 | pready : 0 | pslverr : 0
# active_monitor ...sequence...
# UVM_INFO apb_active_monitor.sv(35) @ 1405: uvm_test_top.env.active_agent.active_monitor [uvm_test_top.env.active_agent.active_monitor] apb_seq_item -> psel: 1 | penable : 1 | pwrite : 1 | paddr : 34 | pwdata : 175 | pstrb : 1111 | prdata : 0 | pready : 0 | pslverr : 0
# passive_monitor ...sequence...
# UVM_INFO apb_passive_monitor.sv(31) @ 1415: uvm_test_top.env.passive_agent.passive_monitor [uvm_test_top.env.passive_agent.passive_monitor] apb_seq_item -> psel: 0 | penable : 0 | pwrite : 0 | paddr : 0 | pwdata : 0 | pstrb : 0000 | prdata : 0 | pready : 1 | pslverr : 0
# UVM_INFO apb_scoreboard.sv(47) @ 1415: uvm_test_top.env.scoreboard [apb_slv_scoreboard] mem : 5 10 15 20 25 30 35 40 45 50 55 60 65 70 75 80 85 90 95 100 105 110 115 120 125 130 135 140 145 150 155 160 165 170 175 0 0 0 0 0 0 0 0 0 0 0 0 0 0 0 0 0 0 0 0 0 0 0 0 0 0 0 0 0 0 0 0 0 0 0 0 0 0 0 0 0 0 0 0 0 0 0 0 0 0 0 0 0 0 0 0 0 0 0 0 0 0 0 0 0 0 0 0 0 0 0 0 0 0 0 0 0 0 0 0 0 0 0 0 0 0 0 0 0 0 0 0 0 0 0 0 0 0 0 0 0 0 0 0 0 0 0 0 0 0 0 0 0 0 0 0 0 0 0 0 0 0 0 0 0 0 0 0 0 0 0 0 0 0 0 0 0 0 0 0 0 0 0 0 0 0 0 0 0 0 0 0 0 0 0 0 0 0 0 0 0 0 0 0 0 0 0 0 0 0 0 0 0 0 0 0 0 0 0 0 0 0 0 0 0 0 0 0 0 0 0 0 0 0 0 0 0 0 0 0 0 0 0 0 0 0 0 0 0 0 0 0 0 0 0 0 0 0 0 0 0
# exp_pslverr : 0
# active_monitor ...sequence...
# UVM_INFO apb_active_monitor.sv(35) @ 1425: uvm_test_top.env.active_agent.active_monitor [uvm_test_top.env.active_agent.active_monitor] apb_seq_item -> psel: 1 | penable : 0 | pwrite : 0 | paddr : 661550414 | pwdata : 695496979 | pstrb : 0111 | prdata : 0 | pready : 0 | pslverr : 0
# active_monitor ...sequence...
# UVM_INFO apb_active_monitor.sv(35) @ 1435: uvm_test_top.env.active_agent.active_monitor [uvm_test_top.env.active_agent.active_monitor] apb_seq_item -> psel: 1 | penable : 0 | pwrite : 1 | paddr : 35 | pwdata : 180 | pstrb : 1111 | prdata : 0 | pready : 0 | pslverr : 0
# active_monitor ...sequence...
# UVM_INFO apb_active_monitor.sv(35) @ 1445: uvm_test_top.env.active_agent.active_monitor [uvm_test_top.env.active_agent.active_monitor] apb_seq_item -> psel: 1 | penable : 1 | pwrite : 1 | paddr : 35 | pwdata : 180 | pstrb : 1111 | prdata : 0 | pready : 0 | pslverr : 0
# passive_monitor ...sequence...
# UVM_INFO apb_passive_monitor.sv(31) @ 1455: uvm_test_top.env.passive_agent.passive_monitor [uvm_test_top.env.passive_agent.passive_monitor] apb_seq_item -> psel: 0 | penable : 0 | pwrite : 0 | paddr : 0 | pwdata : 0 | pstrb : 0000 | prdata : 0 | pready : 1 | pslverr : 0
# UVM_INFO apb_scoreboard.sv(47) @ 1455: uvm_test_top.env.scoreboard [apb_slv_scoreboard] mem : 5 10 15 20 25 30 35 40 45 50 55 60 65 70 75 80 85 90 95 100 105 110 115 120 125 130 135 140 145 150 155 160 165 170 175 180 0 0 0 0 0 0 0 0 0 0 0 0 0 0 0 0 0 0 0 0 0 0 0 0 0 0 0 0 0 0 0 0 0 0 0 0 0 0 0 0 0 0 0 0 0 0 0 0 0 0 0 0 0 0 0 0 0 0 0 0 0 0 0 0 0 0 0 0 0 0 0 0 0 0 0 0 0 0 0 0 0 0 0 0 0 0 0 0 0 0 0 0 0 0 0 0 0 0 0 0 0 0 0 0 0 0 0 0 0 0 0 0 0 0 0 0 0 0 0 0 0 0 0 0 0 0 0 0 0 0 0 0 0 0 0 0 0 0 0 0 0 0 0 0 0 0 0 0 0 0 0 0 0 0 0 0 0 0 0 0 0 0 0 0 0 0 0 0 0 0 0 0 0 0 0 0 0 0 0 0 0 0 0 0 0 0 0 0 0 0 0 0 0 0 0 0 0 0 0 0 0 0 0 0 0 0 0 0 0 0 0 0 0 0 0 0 0 0 0 0
# exp_pslverr : 0
# active_monitor ...sequence...
# UVM_INFO apb_active_monitor.sv(35) @ 1465: uvm_test_top.env.active_agent.active_monitor [uvm_test_top.env.active_agent.active_monitor] apb_seq_item -> psel: 1 | penable : 0 | pwrite : 0 | paddr : 254550571 | pwdata : 606249915 | pstrb : 1100 | prdata : 0 | pready : 0 | pslverr : 0
# active_monitor ...sequence...
# UVM_INFO apb_active_monitor.sv(35) @ 1475: uvm_test_top.env.active_agent.active_monitor [uvm_test_top.env.active_agent.active_monitor] apb_seq_item -> psel: 1 | penable : 0 | pwrite : 1 | paddr : 36 | pwdata : 185 | pstrb : 1111 | prdata : 0 | pready : 0 | pslverr : 0
# active_monitor ...sequence...
# UVM_INFO apb_active_monitor.sv(35) @ 1485: uvm_test_top.env.active_agent.active_monitor [uvm_test_top.env.active_agent.active_monitor] apb_seq_item -> psel: 1 | penable : 1 | pwrite : 1 | paddr : 36 | pwdata : 185 | pstrb : 1111 | prdata : 0 | pready : 0 | pslverr : 0
# passive_monitor ...sequence...
# UVM_INFO apb_passive_monitor.sv(31) @ 1495: uvm_test_top.env.passive_agent.passive_monitor [uvm_test_top.env.passive_agent.passive_monitor] apb_seq_item -> psel: 0 | penable : 0 | pwrite : 0 | paddr : 0 | pwdata : 0 | pstrb : 0000 | prdata : 0 | pready : 1 | pslverr : 0
# UVM_INFO apb_scoreboard.sv(47) @ 1495: uvm_test_top.env.scoreboard [apb_slv_scoreboard] mem : 5 10 15 20 25 30 35 40 45 50 55 60 65 70 75 80 85 90 95 100 105 110 115 120 125 130 135 140 145 150 155 160 165 170 175 180 185 0 0 0 0 0 0 0 0 0 0 0 0 0 0 0 0 0 0 0 0 0 0 0 0 0 0 0 0 0 0 0 0 0 0 0 0 0 0 0 0 0 0 0 0 0 0 0 0 0 0 0 0 0 0 0 0 0 0 0 0 0 0 0 0 0 0 0 0 0 0 0 0 0 0 0 0 0 0 0 0 0 0 0 0 0 0 0 0 0 0 0 0 0 0 0 0 0 0 0 0 0 0 0 0 0 0 0 0 0 0 0 0 0 0 0 0 0 0 0 0 0 0 0 0 0 0 0 0 0 0 0 0 0 0 0 0 0 0 0 0 0 0 0 0 0 0 0 0 0 0 0 0 0 0 0 0 0 0 0 0 0 0 0 0 0 0 0 0 0 0 0 0 0 0 0 0 0 0 0 0 0 0 0 0 0 0 0 0 0 0 0 0 0 0 0 0 0 0 0 0 0 0 0 0 0 0 0 0 0 0 0 0 0 0 0 0 0 0 0
# exp_pslverr : 0
# active_monitor ...sequence...
# UVM_INFO apb_active_monitor.sv(35) @ 1505: uvm_test_top.env.active_agent.active_monitor [uvm_test_top.env.active_agent.active_monitor] apb_seq_item -> psel: 1 | penable : 0 | pwrite : 0 | paddr : 4250484641 | pwdata : 3523105241 | pstrb : 0100 | prdata : 0 | pready : 0 | pslverr : 0
# active_monitor ...sequence...
# UVM_INFO apb_active_monitor.sv(35) @ 1515: uvm_test_top.env.active_agent.active_monitor [uvm_test_top.env.active_agent.active_monitor] apb_seq_item -> psel: 1 | penable : 0 | pwrite : 1 | paddr : 37 | pwdata : 190 | pstrb : 1111 | prdata : 0 | pready : 0 | pslverr : 0
# active_monitor ...sequence...
# UVM_INFO apb_active_monitor.sv(35) @ 1525: uvm_test_top.env.active_agent.active_monitor [uvm_test_top.env.active_agent.active_monitor] apb_seq_item -> psel: 1 | penable : 1 | pwrite : 1 | paddr : 37 | pwdata : 190 | pstrb : 1111 | prdata : 0 | pready : 0 | pslverr : 0
# passive_monitor ...sequence...
# UVM_INFO apb_passive_monitor.sv(31) @ 1535: uvm_test_top.env.passive_agent.passive_monitor [uvm_test_top.env.passive_agent.passive_monitor] apb_seq_item -> psel: 0 | penable : 0 | pwrite : 0 | paddr : 0 | pwdata : 0 | pstrb : 0000 | prdata : 0 | pready : 1 | pslverr : 0
# UVM_INFO apb_scoreboard.sv(47) @ 1535: uvm_test_top.env.scoreboard [apb_slv_scoreboard] mem : 5 10 15 20 25 30 35 40 45 50 55 60 65 70 75 80 85 90 95 100 105 110 115 120 125 130 135 140 145 150 155 160 165 170 175 180 185 190 0 0 0 0 0 0 0 0 0 0 0 0 0 0 0 0 0 0 0 0 0 0 0 0 0 0 0 0 0 0 0 0 0 0 0 0 0 0 0 0 0 0 0 0 0 0 0 0 0 0 0 0 0 0 0 0 0 0 0 0 0 0 0 0 0 0 0 0 0 0 0 0 0 0 0 0 0 0 0 0 0 0 0 0 0 0 0 0 0 0 0 0 0 0 0 0 0 0 0 0 0 0 0 0 0 0 0 0 0 0 0 0 0 0 0 0 0 0 0 0 0 0 0 0 0 0 0 0 0 0 0 0 0 0 0 0 0 0 0 0 0 0 0 0 0 0 0 0 0 0 0 0 0 0 0 0 0 0 0 0 0 0 0 0 0 0 0 0 0 0 0 0 0 0 0 0 0 0 0 0 0 0 0 0 0 0 0 0 0 0 0 0 0 0 0 0 0 0 0 0 0 0 0 0 0 0 0 0 0 0 0 0 0 0 0 0 0 0
# exp_pslverr : 0
# active_monitor ...sequence...
# UVM_INFO apb_active_monitor.sv(35) @ 1545: uvm_test_top.env.active_agent.active_monitor [uvm_test_top.env.active_agent.active_monitor] apb_seq_item -> psel: 1 | penable : 0 | pwrite : 1 | paddr : 145742072 | pwdata : 3630615180 | pstrb : 0011 | prdata : 0 | pready : 0 | pslverr : 0
# active_monitor ...sequence...
# UVM_INFO apb_active_monitor.sv(35) @ 1555: uvm_test_top.env.active_agent.active_monitor [uvm_test_top.env.active_agent.active_monitor] apb_seq_item -> psel: 1 | penable : 0 | pwrite : 1 | paddr : 38 | pwdata : 195 | pstrb : 1111 | prdata : 0 | pready : 0 | pslverr : 0
# active_monitor ...sequence...
# UVM_INFO apb_active_monitor.sv(35) @ 1565: uvm_test_top.env.active_agent.active_monitor [uvm_test_top.env.active_agent.active_monitor] apb_seq_item -> psel: 1 | penable : 1 | pwrite : 1 | paddr : 38 | pwdata : 195 | pstrb : 1111 | prdata : 0 | pready : 0 | pslverr : 0
# passive_monitor ...sequence...
# UVM_INFO apb_passive_monitor.sv(31) @ 1575: uvm_test_top.env.passive_agent.passive_monitor [uvm_test_top.env.passive_agent.passive_monitor] apb_seq_item -> psel: 0 | penable : 0 | pwrite : 0 | paddr : 0 | pwdata : 0 | pstrb : 0000 | prdata : 0 | pready : 1 | pslverr : 0
# UVM_INFO apb_scoreboard.sv(47) @ 1575: uvm_test_top.env.scoreboard [apb_slv_scoreboard] mem : 5 10 15 20 25 30 35 40 45 50 55 60 65 70 75 80 85 90 95 100 105 110 115 120 125 130 135 140 145 150 155 160 165 170 175 180 185 190 195 0 0 0 0 0 0 0 0 0 0 0 0 0 0 0 0 0 0 0 0 0 0 0 0 0 0 0 0 0 0 0 0 0 0 0 0 0 0 0 0 0 0 0 0 0 0 0 0 0 0 0 0 0 0 0 0 0 0 0 0 0 0 0 0 0 0 0 0 0 0 0 0 0 0 0 0 0 0 0 0 0 0 0 0 0 0 0 0 0 0 0 0 0 0 0 0 0 0 0 0 0 0 0 0 0 0 0 0 0 0 0 0 0 0 0 0 0 0 0 0 0 0 0 0 0 0 0 0 0 0 0 0 0 0 0 0 0 0 0 0 0 0 0 0 0 0 0 0 0 0 0 0 0 0 0 0 0 0 0 0 0 0 0 0 0 0 0 0 0 0 0 0 0 0 0 0 0 0 0 0 0 0 0 0 0 0 0 0 0 0 0 0 0 0 0 0 0 0 0 0 0 0 0 0 0 0 0 0 0 0 0 0 0 0 0 0 0
# exp_pslverr : 0
# active_monitor ...sequence...
# UVM_INFO apb_active_monitor.sv(35) @ 1585: uvm_test_top.env.active_agent.active_monitor [uvm_test_top.env.active_agent.active_monitor] apb_seq_item -> psel: 1 | penable : 0 | pwrite : 0 | paddr : 1875298152 | pwdata : 2415234187 | pstrb : 1111 | prdata : 0 | pready : 0 | pslverr : 0
# active_monitor ...sequence...
# UVM_INFO apb_active_monitor.sv(35) @ 1595: uvm_test_top.env.active_agent.active_monitor [uvm_test_top.env.active_agent.active_monitor] apb_seq_item -> psel: 1 | penable : 0 | pwrite : 1 | paddr : 39 | pwdata : 200 | pstrb : 1111 | prdata : 0 | pready : 0 | pslverr : 0
# active_monitor ...sequence...
# UVM_INFO apb_active_monitor.sv(35) @ 1605: uvm_test_top.env.active_agent.active_monitor [uvm_test_top.env.active_agent.active_monitor] apb_seq_item -> psel: 1 | penable : 1 | pwrite : 1 | paddr : 39 | pwdata : 200 | pstrb : 1111 | prdata : 0 | pready : 0 | pslverr : 0
# passive_monitor ...sequence...
# UVM_INFO apb_passive_monitor.sv(31) @ 1615: uvm_test_top.env.passive_agent.passive_monitor [uvm_test_top.env.passive_agent.passive_monitor] apb_seq_item -> psel: 0 | penable : 0 | pwrite : 0 | paddr : 0 | pwdata : 0 | pstrb : 0000 | prdata : 0 | pready : 1 | pslverr : 0
# UVM_INFO apb_scoreboard.sv(47) @ 1615: uvm_test_top.env.scoreboard [apb_slv_scoreboard] mem : 5 10 15 20 25 30 35 40 45 50 55 60 65 70 75 80 85 90 95 100 105 110 115 120 125 130 135 140 145 150 155 160 165 170 175 180 185 190 195 200 0 0 0 0 0 0 0 0 0 0 0 0 0 0 0 0 0 0 0 0 0 0 0 0 0 0 0 0 0 0 0 0 0 0 0 0 0 0 0 0 0 0 0 0 0 0 0 0 0 0 0 0 0 0 0 0 0 0 0 0 0 0 0 0 0 0 0 0 0 0 0 0 0 0 0 0 0 0 0 0 0 0 0 0 0 0 0 0 0 0 0 0 0 0 0 0 0 0 0 0 0 0 0 0 0 0 0 0 0 0 0 0 0 0 0 0 0 0 0 0 0 0 0 0 0 0 0 0 0 0 0 0 0 0 0 0 0 0 0 0 0 0 0 0 0 0 0 0 0 0 0 0 0 0 0 0 0 0 0 0 0 0 0 0 0 0 0 0 0 0 0 0 0 0 0 0 0 0 0 0 0 0 0 0 0 0 0 0 0 0 0 0 0 0 0 0 0 0 0 0 0 0 0 0 0 0 0 0 0 0 0 0 0 0 0 0
# exp_pslverr : 0
# active_monitor ...sequence...
# UVM_INFO apb_active_monitor.sv(35) @ 1625: uvm_test_top.env.active_agent.active_monitor [uvm_test_top.env.active_agent.active_monitor] apb_seq_item -> psel: 1 | penable : 0 | pwrite : 1 | paddr : 4020931785 | pwdata : 1836136334 | pstrb : 1101 | prdata : 0 | pready : 0 | pslverr : 0
# active_monitor ...sequence...
# UVM_INFO apb_active_monitor.sv(35) @ 1635: uvm_test_top.env.active_agent.active_monitor [uvm_test_top.env.active_agent.active_monitor] apb_seq_item -> psel: 1 | penable : 0 | pwrite : 1 | paddr : 40 | pwdata : 205 | pstrb : 1111 | prdata : 0 | pready : 0 | pslverr : 0
# active_monitor ...sequence...
# UVM_INFO apb_active_monitor.sv(35) @ 1645: uvm_test_top.env.active_agent.active_monitor [uvm_test_top.env.active_agent.active_monitor] apb_seq_item -> psel: 1 | penable : 1 | pwrite : 1 | paddr : 40 | pwdata : 205 | pstrb : 1111 | prdata : 0 | pready : 0 | pslverr : 0
# passive_monitor ...sequence...
# UVM_INFO apb_passive_monitor.sv(31) @ 1655: uvm_test_top.env.passive_agent.passive_monitor [uvm_test_top.env.passive_agent.passive_monitor] apb_seq_item -> psel: 0 | penable : 0 | pwrite : 0 | paddr : 0 | pwdata : 0 | pstrb : 0000 | prdata : 0 | pready : 1 | pslverr : 0
# UVM_INFO apb_scoreboard.sv(47) @ 1655: uvm_test_top.env.scoreboard [apb_slv_scoreboard] mem : 5 10 15 20 25 30 35 40 45 50 55 60 65 70 75 80 85 90 95 100 105 110 115 120 125 130 135 140 145 150 155 160 165 170 175 180 185 190 195 200 205 0 0 0 0 0 0 0 0 0 0 0 0 0 0 0 0 0 0 0 0 0 0 0 0 0 0 0 0 0 0 0 0 0 0 0 0 0 0 0 0 0 0 0 0 0 0 0 0 0 0 0 0 0 0 0 0 0 0 0 0 0 0 0 0 0 0 0 0 0 0 0 0 0 0 0 0 0 0 0 0 0 0 0 0 0 0 0 0 0 0 0 0 0 0 0 0 0 0 0 0 0 0 0 0 0 0 0 0 0 0 0 0 0 0 0 0 0 0 0 0 0 0 0 0 0 0 0 0 0 0 0 0 0 0 0 0 0 0 0 0 0 0 0 0 0 0 0 0 0 0 0 0 0 0 0 0 0 0 0 0 0 0 0 0 0 0 0 0 0 0 0 0 0 0 0 0 0 0 0 0 0 0 0 0 0 0 0 0 0 0 0 0 0 0 0 0 0 0 0 0 0 0 0 0 0 0 0 0 0 0 0 0 0 0 0
# exp_pslverr : 0
# active_monitor ...sequence...
# UVM_INFO apb_active_monitor.sv(35) @ 1665: uvm_test_top.env.active_agent.active_monitor [uvm_test_top.env.active_agent.active_monitor] apb_seq_item -> psel: 1 | penable : 0 | pwrite : 0 | paddr : 3300722863 | pwdata : 4044897172 | pstrb : 0000 | prdata : 0 | pready : 0 | pslverr : 0
# active_monitor ...sequence...
# UVM_INFO apb_active_monitor.sv(35) @ 1675: uvm_test_top.env.active_agent.active_monitor [uvm_test_top.env.active_agent.active_monitor] apb_seq_item -> psel: 1 | penable : 0 | pwrite : 1 | paddr : 41 | pwdata : 210 | pstrb : 1111 | prdata : 0 | pready : 0 | pslverr : 0
# active_monitor ...sequence...
# UVM_INFO apb_active_monitor.sv(35) @ 1685: uvm_test_top.env.active_agent.active_monitor [uvm_test_top.env.active_agent.active_monitor] apb_seq_item -> psel: 1 | penable : 1 | pwrite : 1 | paddr : 41 | pwdata : 210 | pstrb : 1111 | prdata : 0 | pready : 0 | pslverr : 0
# passive_monitor ...sequence...
# UVM_INFO apb_passive_monitor.sv(31) @ 1695: uvm_test_top.env.passive_agent.passive_monitor [uvm_test_top.env.passive_agent.passive_monitor] apb_seq_item -> psel: 0 | penable : 0 | pwrite : 0 | paddr : 0 | pwdata : 0 | pstrb : 0000 | prdata : 0 | pready : 1 | pslverr : 0
# UVM_INFO apb_scoreboard.sv(47) @ 1695: uvm_test_top.env.scoreboard [apb_slv_scoreboard] mem : 5 10 15 20 25 30 35 40 45 50 55 60 65 70 75 80 85 90 95 100 105 110 115 120 125 130 135 140 145 150 155 160 165 170 175 180 185 190 195 200 205 210 0 0 0 0 0 0 0 0 0 0 0 0 0 0 0 0 0 0 0 0 0 0 0 0 0 0 0 0 0 0 0 0 0 0 0 0 0 0 0 0 0 0 0 0 0 0 0 0 0 0 0 0 0 0 0 0 0 0 0 0 0 0 0 0 0 0 0 0 0 0 0 0 0 0 0 0 0 0 0 0 0 0 0 0 0 0 0 0 0 0 0 0 0 0 0 0 0 0 0 0 0 0 0 0 0 0 0 0 0 0 0 0 0 0 0 0 0 0 0 0 0 0 0 0 0 0 0 0 0 0 0 0 0 0 0 0 0 0 0 0 0 0 0 0 0 0 0 0 0 0 0 0 0 0 0 0 0 0 0 0 0 0 0 0 0 0 0 0 0 0 0 0 0 0 0 0 0 0 0 0 0 0 0 0 0 0 0 0 0 0 0 0 0 0 0 0 0 0 0 0 0 0 0 0 0 0 0 0 0 0 0 0 0 0
# exp_pslverr : 0
# active_monitor ...sequence...
# UVM_INFO apb_active_monitor.sv(35) @ 1705: uvm_test_top.env.active_agent.active_monitor [uvm_test_top.env.active_agent.active_monitor] apb_seq_item -> psel: 1 | penable : 0 | pwrite : 0 | paddr : 3854169671 | pwdata : 1338213615 | pstrb : 1010 | prdata : 0 | pready : 0 | pslverr : 0
# active_monitor ...sequence...
# UVM_INFO apb_active_monitor.sv(35) @ 1715: uvm_test_top.env.active_agent.active_monitor [uvm_test_top.env.active_agent.active_monitor] apb_seq_item -> psel: 1 | penable : 0 | pwrite : 1 | paddr : 42 | pwdata : 215 | pstrb : 1111 | prdata : 0 | pready : 0 | pslverr : 0
# active_monitor ...sequence...
# UVM_INFO apb_active_monitor.sv(35) @ 1725: uvm_test_top.env.active_agent.active_monitor [uvm_test_top.env.active_agent.active_monitor] apb_seq_item -> psel: 1 | penable : 1 | pwrite : 1 | paddr : 42 | pwdata : 215 | pstrb : 1111 | prdata : 0 | pready : 0 | pslverr : 0
# passive_monitor ...sequence...
# UVM_INFO apb_passive_monitor.sv(31) @ 1735: uvm_test_top.env.passive_agent.passive_monitor [uvm_test_top.env.passive_agent.passive_monitor] apb_seq_item -> psel: 0 | penable : 0 | pwrite : 0 | paddr : 0 | pwdata : 0 | pstrb : 0000 | prdata : 0 | pready : 1 | pslverr : 0
# UVM_INFO apb_scoreboard.sv(47) @ 1735: uvm_test_top.env.scoreboard [apb_slv_scoreboard] mem : 5 10 15 20 25 30 35 40 45 50 55 60 65 70 75 80 85 90 95 100 105 110 115 120 125 130 135 140 145 150 155 160 165 170 175 180 185 190 195 200 205 210 215 0 0 0 0 0 0 0 0 0 0 0 0 0 0 0 0 0 0 0 0 0 0 0 0 0 0 0 0 0 0 0 0 0 0 0 0 0 0 0 0 0 0 0 0 0 0 0 0 0 0 0 0 0 0 0 0 0 0 0 0 0 0 0 0 0 0 0 0 0 0 0 0 0 0 0 0 0 0 0 0 0 0 0 0 0 0 0 0 0 0 0 0 0 0 0 0 0 0 0 0 0 0 0 0 0 0 0 0 0 0 0 0 0 0 0 0 0 0 0 0 0 0 0 0 0 0 0 0 0 0 0 0 0 0 0 0 0 0 0 0 0 0 0 0 0 0 0 0 0 0 0 0 0 0 0 0 0 0 0 0 0 0 0 0 0 0 0 0 0 0 0 0 0 0 0 0 0 0 0 0 0 0 0 0 0 0 0 0 0 0 0 0 0 0 0 0 0 0 0 0 0 0 0 0 0 0 0 0 0 0 0 0 0
# exp_pslverr : 0
# active_monitor ...sequence...
# UVM_INFO apb_active_monitor.sv(35) @ 1745: uvm_test_top.env.active_agent.active_monitor [uvm_test_top.env.active_agent.active_monitor] apb_seq_item -> psel: 1 | penable : 0 | pwrite : 1 | paddr : 1086949091 | pwdata : 3337908936 | pstrb : 0111 | prdata : 0 | pready : 0 | pslverr : 0
# active_monitor ...sequence...
# UVM_INFO apb_active_monitor.sv(35) @ 1755: uvm_test_top.env.active_agent.active_monitor [uvm_test_top.env.active_agent.active_monitor] apb_seq_item -> psel: 1 | penable : 0 | pwrite : 1 | paddr : 43 | pwdata : 220 | pstrb : 1111 | prdata : 0 | pready : 0 | pslverr : 0
# active_monitor ...sequence...
# UVM_INFO apb_active_monitor.sv(35) @ 1765: uvm_test_top.env.active_agent.active_monitor [uvm_test_top.env.active_agent.active_monitor] apb_seq_item -> psel: 1 | penable : 1 | pwrite : 1 | paddr : 43 | pwdata : 220 | pstrb : 1111 | prdata : 0 | pready : 0 | pslverr : 0
# passive_monitor ...sequence...
# UVM_INFO apb_passive_monitor.sv(31) @ 1775: uvm_test_top.env.passive_agent.passive_monitor [uvm_test_top.env.passive_agent.passive_monitor] apb_seq_item -> psel: 0 | penable : 0 | pwrite : 0 | paddr : 0 | pwdata : 0 | pstrb : 0000 | prdata : 0 | pready : 1 | pslverr : 0
# UVM_INFO apb_scoreboard.sv(47) @ 1775: uvm_test_top.env.scoreboard [apb_slv_scoreboard] mem : 5 10 15 20 25 30 35 40 45 50 55 60 65 70 75 80 85 90 95 100 105 110 115 120 125 130 135 140 145 150 155 160 165 170 175 180 185 190 195 200 205 210 215 220 0 0 0 0 0 0 0 0 0 0 0 0 0 0 0 0 0 0 0 0 0 0 0 0 0 0 0 0 0 0 0 0 0 0 0 0 0 0 0 0 0 0 0 0 0 0 0 0 0 0 0 0 0 0 0 0 0 0 0 0 0 0 0 0 0 0 0 0 0 0 0 0 0 0 0 0 0 0 0 0 0 0 0 0 0 0 0 0 0 0 0 0 0 0 0 0 0 0 0 0 0 0 0 0 0 0 0 0 0 0 0 0 0 0 0 0 0 0 0 0 0 0 0 0 0 0 0 0 0 0 0 0 0 0 0 0 0 0 0 0 0 0 0 0 0 0 0 0 0 0 0 0 0 0 0 0 0 0 0 0 0 0 0 0 0 0 0 0 0 0 0 0 0 0 0 0 0 0 0 0 0 0 0 0 0 0 0 0 0 0 0 0 0 0 0 0 0 0 0 0 0 0 0 0 0 0 0 0 0 0 0 0
# exp_pslverr : 0
# active_monitor ...sequence...
# UVM_INFO apb_active_monitor.sv(35) @ 1785: uvm_test_top.env.active_agent.active_monitor [uvm_test_top.env.active_agent.active_monitor] apb_seq_item -> psel: 1 | penable : 0 | pwrite : 1 | paddr : 3899109006 | pwdata : 3136072586 | pstrb : 1110 | prdata : 0 | pready : 0 | pslverr : 0
# active_monitor ...sequence...
# UVM_INFO apb_active_monitor.sv(35) @ 1795: uvm_test_top.env.active_agent.active_monitor [uvm_test_top.env.active_agent.active_monitor] apb_seq_item -> psel: 1 | penable : 0 | pwrite : 1 | paddr : 44 | pwdata : 225 | pstrb : 1111 | prdata : 0 | pready : 0 | pslverr : 0
# active_monitor ...sequence...
# UVM_INFO apb_active_monitor.sv(35) @ 1805: uvm_test_top.env.active_agent.active_monitor [uvm_test_top.env.active_agent.active_monitor] apb_seq_item -> psel: 1 | penable : 1 | pwrite : 1 | paddr : 44 | pwdata : 225 | pstrb : 1111 | prdata : 0 | pready : 0 | pslverr : 0
# passive_monitor ...sequence...
# UVM_INFO apb_passive_monitor.sv(31) @ 1815: uvm_test_top.env.passive_agent.passive_monitor [uvm_test_top.env.passive_agent.passive_monitor] apb_seq_item -> psel: 0 | penable : 0 | pwrite : 0 | paddr : 0 | pwdata : 0 | pstrb : 0000 | prdata : 0 | pready : 1 | pslverr : 0
# UVM_INFO apb_scoreboard.sv(47) @ 1815: uvm_test_top.env.scoreboard [apb_slv_scoreboard] mem : 5 10 15 20 25 30 35 40 45 50 55 60 65 70 75 80 85 90 95 100 105 110 115 120 125 130 135 140 145 150 155 160 165 170 175 180 185 190 195 200 205 210 215 220 225 0 0 0 0 0 0 0 0 0 0 0 0 0 0 0 0 0 0 0 0 0 0 0 0 0 0 0 0 0 0 0 0 0 0 0 0 0 0 0 0 0 0 0 0 0 0 0 0 0 0 0 0 0 0 0 0 0 0 0 0 0 0 0 0 0 0 0 0 0 0 0 0 0 0 0 0 0 0 0 0 0 0 0 0 0 0 0 0 0 0 0 0 0 0 0 0 0 0 0 0 0 0 0 0 0 0 0 0 0 0 0 0 0 0 0 0 0 0 0 0 0 0 0 0 0 0 0 0 0 0 0 0 0 0 0 0 0 0 0 0 0 0 0 0 0 0 0 0 0 0 0 0 0 0 0 0 0 0 0 0 0 0 0 0 0 0 0 0 0 0 0 0 0 0 0 0 0 0 0 0 0 0 0 0 0 0 0 0 0 0 0 0 0 0 0 0 0 0 0 0 0 0 0 0 0 0 0 0 0 0 0
# exp_pslverr : 0
# active_monitor ...sequence...
# UVM_INFO apb_active_monitor.sv(35) @ 1825: uvm_test_top.env.active_agent.active_monitor [uvm_test_top.env.active_agent.active_monitor] apb_seq_item -> psel: 1 | penable : 0 | pwrite : 0 | paddr : 197358989 | pwdata : 1882343769 | pstrb : 1101 | prdata : 0 | pready : 0 | pslverr : 0
# active_monitor ...sequence...
# UVM_INFO apb_active_monitor.sv(35) @ 1835: uvm_test_top.env.active_agent.active_monitor [uvm_test_top.env.active_agent.active_monitor] apb_seq_item -> psel: 1 | penable : 0 | pwrite : 1 | paddr : 45 | pwdata : 230 | pstrb : 1111 | prdata : 0 | pready : 0 | pslverr : 0
# active_monitor ...sequence...
# UVM_INFO apb_active_monitor.sv(35) @ 1845: uvm_test_top.env.active_agent.active_monitor [uvm_test_top.env.active_agent.active_monitor] apb_seq_item -> psel: 1 | penable : 1 | pwrite : 1 | paddr : 45 | pwdata : 230 | pstrb : 1111 | prdata : 0 | pready : 0 | pslverr : 0
# passive_monitor ...sequence...
# UVM_INFO apb_passive_monitor.sv(31) @ 1855: uvm_test_top.env.passive_agent.passive_monitor [uvm_test_top.env.passive_agent.passive_monitor] apb_seq_item -> psel: 0 | penable : 0 | pwrite : 0 | paddr : 0 | pwdata : 0 | pstrb : 0000 | prdata : 0 | pready : 1 | pslverr : 0
# UVM_INFO apb_scoreboard.sv(47) @ 1855: uvm_test_top.env.scoreboard [apb_slv_scoreboard] mem : 5 10 15 20 25 30 35 40 45 50 55 60 65 70 75 80 85 90 95 100 105 110 115 120 125 130 135 140 145 150 155 160 165 170 175 180 185 190 195 200 205 210 215 220 225 230 0 0 0 0 0 0 0 0 0 0 0 0 0 0 0 0 0 0 0 0 0 0 0 0 0 0 0 0 0 0 0 0 0 0 0 0 0 0 0 0 0 0 0 0 0 0 0 0 0 0 0 0 0 0 0 0 0 0 0 0 0 0 0 0 0 0 0 0 0 0 0 0 0 0 0 0 0 0 0 0 0 0 0 0 0 0 0 0 0 0 0 0 0 0 0 0 0 0 0 0 0 0 0 0 0 0 0 0 0 0 0 0 0 0 0 0 0 0 0 0 0 0 0 0 0 0 0 0 0 0 0 0 0 0 0 0 0 0 0 0 0 0 0 0 0 0 0 0 0 0 0 0 0 0 0 0 0 0 0 0 0 0 0 0 0 0 0 0 0 0 0 0 0 0 0 0 0 0 0 0 0 0 0 0 0 0 0 0 0 0 0 0 0 0 0 0 0 0 0 0 0 0 0 0 0 0 0 0 0 0
# exp_pslverr : 0
# active_monitor ...sequence...
# UVM_INFO apb_active_monitor.sv(35) @ 1865: uvm_test_top.env.active_agent.active_monitor [uvm_test_top.env.active_agent.active_monitor] apb_seq_item -> psel: 1 | penable : 0 | pwrite : 1 | paddr : 2295841151 | pwdata : 4020392764 | pstrb : 1110 | prdata : 0 | pready : 0 | pslverr : 0
# active_monitor ...sequence...
# UVM_INFO apb_active_monitor.sv(35) @ 1875: uvm_test_top.env.active_agent.active_monitor [uvm_test_top.env.active_agent.active_monitor] apb_seq_item -> psel: 1 | penable : 0 | pwrite : 1 | paddr : 46 | pwdata : 235 | pstrb : 1111 | prdata : 0 | pready : 0 | pslverr : 0
# active_monitor ...sequence...
# UVM_INFO apb_active_monitor.sv(35) @ 1885: uvm_test_top.env.active_agent.active_monitor [uvm_test_top.env.active_agent.active_monitor] apb_seq_item -> psel: 1 | penable : 1 | pwrite : 1 | paddr : 46 | pwdata : 235 | pstrb : 1111 | prdata : 0 | pready : 0 | pslverr : 0
# passive_monitor ...sequence...
# UVM_INFO apb_passive_monitor.sv(31) @ 1895: uvm_test_top.env.passive_agent.passive_monitor [uvm_test_top.env.passive_agent.passive_monitor] apb_seq_item -> psel: 0 | penable : 0 | pwrite : 0 | paddr : 0 | pwdata : 0 | pstrb : 0000 | prdata : 0 | pready : 1 | pslverr : 0
# UVM_INFO apb_scoreboard.sv(47) @ 1895: uvm_test_top.env.scoreboard [apb_slv_scoreboard] mem : 5 10 15 20 25 30 35 40 45 50 55 60 65 70 75 80 85 90 95 100 105 110 115 120 125 130 135 140 145 150 155 160 165 170 175 180 185 190 195 200 205 210 215 220 225 230 235 0 0 0 0 0 0 0 0 0 0 0 0 0 0 0 0 0 0 0 0 0 0 0 0 0 0 0 0 0 0 0 0 0 0 0 0 0 0 0 0 0 0 0 0 0 0 0 0 0 0 0 0 0 0 0 0 0 0 0 0 0 0 0 0 0 0 0 0 0 0 0 0 0 0 0 0 0 0 0 0 0 0 0 0 0 0 0 0 0 0 0 0 0 0 0 0 0 0 0 0 0 0 0 0 0 0 0 0 0 0 0 0 0 0 0 0 0 0 0 0 0 0 0 0 0 0 0 0 0 0 0 0 0 0 0 0 0 0 0 0 0 0 0 0 0 0 0 0 0 0 0 0 0 0 0 0 0 0 0 0 0 0 0 0 0 0 0 0 0 0 0 0 0 0 0 0 0 0 0 0 0 0 0 0 0 0 0 0 0 0 0 0 0 0 0 0 0 0 0 0 0 0 0 0 0 0 0 0 0
# exp_pslverr : 0
# active_monitor ...sequence...
# UVM_INFO apb_active_monitor.sv(35) @ 1905: uvm_test_top.env.active_agent.active_monitor [uvm_test_top.env.active_agent.active_monitor] apb_seq_item -> psel: 1 | penable : 0 | pwrite : 0 | paddr : 2424681680 | pwdata : 3077370965 | pstrb : 0011 | prdata : 0 | pready : 0 | pslverr : 0
# active_monitor ...sequence...
# UVM_INFO apb_active_monitor.sv(35) @ 1915: uvm_test_top.env.active_agent.active_monitor [uvm_test_top.env.active_agent.active_monitor] apb_seq_item -> psel: 1 | penable : 0 | pwrite : 1 | paddr : 47 | pwdata : 240 | pstrb : 1111 | prdata : 0 | pready : 0 | pslverr : 0
# active_monitor ...sequence...
# UVM_INFO apb_active_monitor.sv(35) @ 1925: uvm_test_top.env.active_agent.active_monitor [uvm_test_top.env.active_agent.active_monitor] apb_seq_item -> psel: 1 | penable : 1 | pwrite : 1 | paddr : 47 | pwdata : 240 | pstrb : 1111 | prdata : 0 | pready : 0 | pslverr : 0
# passive_monitor ...sequence...
# UVM_INFO apb_passive_monitor.sv(31) @ 1935: uvm_test_top.env.passive_agent.passive_monitor [uvm_test_top.env.passive_agent.passive_monitor] apb_seq_item -> psel: 0 | penable : 0 | pwrite : 0 | paddr : 0 | pwdata : 0 | pstrb : 0000 | prdata : 0 | pready : 1 | pslverr : 0
# UVM_INFO apb_scoreboard.sv(47) @ 1935: uvm_test_top.env.scoreboard [apb_slv_scoreboard] mem : 5 10 15 20 25 30 35 40 45 50 55 60 65 70 75 80 85 90 95 100 105 110 115 120 125 130 135 140 145 150 155 160 165 170 175 180 185 190 195 200 205 210 215 220 225 230 235 240 0 0 0 0 0 0 0 0 0 0 0 0 0 0 0 0 0 0 0 0 0 0 0 0 0 0 0 0 0 0 0 0 0 0 0 0 0 0 0 0 0 0 0 0 0 0 0 0 0 0 0 0 0 0 0 0 0 0 0 0 0 0 0 0 0 0 0 0 0 0 0 0 0 0 0 0 0 0 0 0 0 0 0 0 0 0 0 0 0 0 0 0 0 0 0 0 0 0 0 0 0 0 0 0 0 0 0 0 0 0 0 0 0 0 0 0 0 0 0 0 0 0 0 0 0 0 0 0 0 0 0 0 0 0 0 0 0 0 0 0 0 0 0 0 0 0 0 0 0 0 0 0 0 0 0 0 0 0 0 0 0 0 0 0 0 0 0 0 0 0 0 0 0 0 0 0 0 0 0 0 0 0 0 0 0 0 0 0 0 0 0 0 0 0 0 0 0 0 0 0 0 0 0 0 0 0 0 0
# exp_pslverr : 0
# active_monitor ...sequence...
# UVM_INFO apb_active_monitor.sv(35) @ 1945: uvm_test_top.env.active_agent.active_monitor [uvm_test_top.env.active_agent.active_monitor] apb_seq_item -> psel: 1 | penable : 0 | pwrite : 0 | paddr : 542475564 | pwdata : 3851596072 | pstrb : 1000 | prdata : 0 | pready : 0 | pslverr : 0
# active_monitor ...sequence...
# UVM_INFO apb_active_monitor.sv(35) @ 1955: uvm_test_top.env.active_agent.active_monitor [uvm_test_top.env.active_agent.active_monitor] apb_seq_item -> psel: 1 | penable : 0 | pwrite : 1 | paddr : 48 | pwdata : 245 | pstrb : 1111 | prdata : 0 | pready : 0 | pslverr : 0
# active_monitor ...sequence...
# UVM_INFO apb_active_monitor.sv(35) @ 1965: uvm_test_top.env.active_agent.active_monitor [uvm_test_top.env.active_agent.active_monitor] apb_seq_item -> psel: 1 | penable : 1 | pwrite : 1 | paddr : 48 | pwdata : 245 | pstrb : 1111 | prdata : 0 | pready : 0 | pslverr : 0
# passive_monitor ...sequence...
# UVM_INFO apb_passive_monitor.sv(31) @ 1975: uvm_test_top.env.passive_agent.passive_monitor [uvm_test_top.env.passive_agent.passive_monitor] apb_seq_item -> psel: 0 | penable : 0 | pwrite : 0 | paddr : 0 | pwdata : 0 | pstrb : 0000 | prdata : 0 | pready : 1 | pslverr : 0
# UVM_INFO apb_scoreboard.sv(47) @ 1975: uvm_test_top.env.scoreboard [apb_slv_scoreboard] mem : 5 10 15 20 25 30 35 40 45 50 55 60 65 70 75 80 85 90 95 100 105 110 115 120 125 130 135 140 145 150 155 160 165 170 175 180 185 190 195 200 205 210 215 220 225 230 235 240 245 0 0 0 0 0 0 0 0 0 0 0 0 0 0 0 0 0 0 0 0 0 0 0 0 0 0 0 0 0 0 0 0 0 0 0 0 0 0 0 0 0 0 0 0 0 0 0 0 0 0 0 0 0 0 0 0 0 0 0 0 0 0 0 0 0 0 0 0 0 0 0 0 0 0 0 0 0 0 0 0 0 0 0 0 0 0 0 0 0 0 0 0 0 0 0 0 0 0 0 0 0 0 0 0 0 0 0 0 0 0 0 0 0 0 0 0 0 0 0 0 0 0 0 0 0 0 0 0 0 0 0 0 0 0 0 0 0 0 0 0 0 0 0 0 0 0 0 0 0 0 0 0 0 0 0 0 0 0 0 0 0 0 0 0 0 0 0 0 0 0 0 0 0 0 0 0 0 0 0 0 0 0 0 0 0 0 0 0 0 0 0 0 0 0 0 0 0 0 0 0 0 0 0 0 0 0 0
# exp_pslverr : 0
# active_monitor ...sequence...
# UVM_INFO apb_active_monitor.sv(35) @ 1985: uvm_test_top.env.active_agent.active_monitor [uvm_test_top.env.active_agent.active_monitor] apb_seq_item -> psel: 1 | penable : 0 | pwrite : 1 | paddr : 1874569254 | pwdata : 2030369180 | pstrb : 0010 | prdata : 0 | pready : 0 | pslverr : 0
# active_monitor ...sequence...
# UVM_INFO apb_active_monitor.sv(35) @ 1995: uvm_test_top.env.active_agent.active_monitor [uvm_test_top.env.active_agent.active_monitor] apb_seq_item -> psel: 1 | penable : 0 | pwrite : 1 | paddr : 49 | pwdata : 250 | pstrb : 1111 | prdata : 0 | pready : 0 | pslverr : 0
# active_monitor ...sequence...
# UVM_INFO apb_active_monitor.sv(35) @ 2005: uvm_test_top.env.active_agent.active_monitor [uvm_test_top.env.active_agent.active_monitor] apb_seq_item -> psel: 1 | penable : 1 | pwrite : 1 | paddr : 49 | pwdata : 250 | pstrb : 1111 | prdata : 0 | pready : 0 | pslverr : 0
# passive_monitor ...sequence...
# UVM_INFO apb_passive_monitor.sv(31) @ 2015: uvm_test_top.env.passive_agent.passive_monitor [uvm_test_top.env.passive_agent.passive_monitor] apb_seq_item -> psel: 0 | penable : 0 | pwrite : 0 | paddr : 0 | pwdata : 0 | pstrb : 0000 | prdata : 0 | pready : 1 | pslverr : 0
# UVM_INFO apb_scoreboard.sv(47) @ 2015: uvm_test_top.env.scoreboard [apb_slv_scoreboard] mem : 5 10 15 20 25 30 35 40 45 50 55 60 65 70 75 80 85 90 95 100 105 110 115 120 125 130 135 140 145 150 155 160 165 170 175 180 185 190 195 200 205 210 215 220 225 230 235 240 245 250 0 0 0 0 0 0 0 0 0 0 0 0 0 0 0 0 0 0 0 0 0 0 0 0 0 0 0 0 0 0 0 0 0 0 0 0 0 0 0 0 0 0 0 0 0 0 0 0 0 0 0 0 0 0 0 0 0 0 0 0 0 0 0 0 0 0 0 0 0 0 0 0 0 0 0 0 0 0 0 0 0 0 0 0 0 0 0 0 0 0 0 0 0 0 0 0 0 0 0 0 0 0 0 0 0 0 0 0 0 0 0 0 0 0 0 0 0 0 0 0 0 0 0 0 0 0 0 0 0 0 0 0 0 0 0 0 0 0 0 0 0 0 0 0 0 0 0 0 0 0 0 0 0 0 0 0 0 0 0 0 0 0 0 0 0 0 0 0 0 0 0 0 0 0 0 0 0 0 0 0 0 0 0 0 0 0 0 0 0 0 0 0 0 0 0 0 0 0 0 0 0 0 0 0 0 0
# exp_pslverr : 0
# active_monitor ...sequence...
# UVM_INFO apb_active_monitor.sv(35) @ 2025: uvm_test_top.env.active_agent.active_monitor [uvm_test_top.env.active_agent.active_monitor] apb_seq_item -> psel: 1 | penable : 0 | pwrite : 1 | paddr : 3503343601 | pwdata : 302675950 | pstrb : 1111 | prdata : 0 | pready : 0 | pslverr : 0
# active_monitor ...sequence...
# UVM_INFO apb_active_monitor.sv(35) @ 2035: uvm_test_top.env.active_agent.active_monitor [uvm_test_top.env.active_agent.active_monitor] apb_seq_item -> psel: 0 | penable : 0 | pwrite : 0 | paddr : 0 | pwdata : 1064533463 | pstrb : 0001 | prdata : 0 | pready : 0 | pslverr : 0
# active_monitor ...sequence...
# UVM_INFO apb_active_monitor.sv(35) @ 2045: uvm_test_top.env.active_agent.active_monitor [uvm_test_top.env.active_agent.active_monitor] apb_seq_item -> psel: 1 | penable : 0 | pwrite : 0 | paddr : 0 | pwdata : 2229307278 | pstrb : 0111 | prdata : 0 | pready : 0 | pslverr : 0
# active_monitor ...sequence...
# UVM_INFO apb_active_monitor.sv(35) @ 2055: uvm_test_top.env.active_agent.active_monitor [uvm_test_top.env.active_agent.active_monitor] apb_seq_item -> psel: 1 | penable : 1 | pwrite : 0 | paddr : 0 | pwdata : 580172225 | pstrb : 0100 | prdata : 0 | pready : 0 | pslverr : 0
# passive_monitor ...sequence...
# UVM_INFO apb_passive_monitor.sv(31) @ 2065: uvm_test_top.env.passive_agent.passive_monitor [uvm_test_top.env.passive_agent.passive_monitor] apb_seq_item -> psel: 0 | penable : 0 | pwrite : 0 | paddr : 0 | pwdata : 0 | pstrb : 0000 | prdata : 5 | pready : 1 | pslverr : 0
# UVM_INFO apb_scoreboard.sv(55) @ 2065: uvm_test_top.env.scoreboard [uvm_test_top.env.scoreboard] MATCH HAS OCCURED...
# UVM_INFO apb_scoreboard.sv(56) @ 2065: uvm_test_top.env.scoreboard [uvm_test_top.env.scoreboard] @addres -> mem : 5  |  rdata : 5
# active_monitor ...sequence...
# UVM_INFO apb_active_monitor.sv(35) @ 2075: uvm_test_top.env.active_agent.active_monitor [uvm_test_top.env.active_agent.active_monitor] apb_seq_item -> psel: 1 | penable : 0 | pwrite : 1 | paddr : 2873629989 | pwdata : 1402522297 | pstrb : 0101 | prdata : 0 | pready : 0 | pslverr : 0
# active_monitor ...sequence...
# UVM_INFO apb_active_monitor.sv(35) @ 2085: uvm_test_top.env.active_agent.active_monitor [uvm_test_top.env.active_agent.active_monitor] apb_seq_item -> psel: 1 | penable : 0 | pwrite : 0 | paddr : 5 | pwdata : 2119386435 | pstrb : 0101 | prdata : 0 | pready : 0 | pslverr : 0
# active_monitor ...sequence...
# UVM_INFO apb_active_monitor.sv(35) @ 2095: uvm_test_top.env.active_agent.active_monitor [uvm_test_top.env.active_agent.active_monitor] apb_seq_item -> psel: 1 | penable : 1 | pwrite : 0 | paddr : 5 | pwdata : 416349664 | pstrb : 1001 | prdata : 0 | pready : 0 | pslverr : 0
# passive_monitor ...sequence...
# UVM_INFO apb_passive_monitor.sv(31) @ 2105: uvm_test_top.env.passive_agent.passive_monitor [uvm_test_top.env.passive_agent.passive_monitor] apb_seq_item -> psel: 0 | penable : 0 | pwrite : 0 | paddr : 0 | pwdata : 0 | pstrb : 0000 | prdata : 30 | pready : 1 | pslverr : 0
